#H
SOURCE='PSPICE' VERSION='PSpice 8.0 (July 1997)'
TITLE='FB2/DEFAULT    BIAS (VER. 22)   * RULES NPN:AE PNP:AE RP:AE'
SUBTITLE=''
TIME='16:08:09' DATE='08/26/125' TEMPERATURE='2.7000000E01'
ANALYSIS='AC Sweep' SERIALNO='135568'
ALLVALUES='YES' COMPLEXVALUES='YES' NODES='162'
SWEEPVAR='Frequency' SWEEPMODE='LOG'
XBEGIN='1.0000000E00' XEND='1.0000000E08'
FORMAT='0 R_VOLTSorAMPS;EFLOAT / I_VOLTSorAMPS;EFLOAT : NODEorBRANCH;NODE  '
DGTLDATA='NO' 
#N 
'V(VCC)';'V2(D201)';'VE(Q217)';'VE(Q220)';'VC(Q225)';'V1(R04)';'V1(R05)';'V1(R201)';'V1(R204)';'V1(R206)';'V1(R207)';'V1(R210)';'V1(R212)';
'V1(R214)';'V1(VCC)' 'V(IP1)';'VC(Q216)';'V1(R01)' 'V(IP4)';'VC(Q214)';'V1(R02)' 'V(IP5)';'VC(Q212)';'V1(R03)' 'V(IN3)';'VC(Q213)';'V2(R04)' 
'V(IN31)';'VC(Q215)';'V2(R05)' 'V(SUB)';'V1(VSUB)' 'V(202)';'VC(Q201)';'VB(Q201)';'VB(Q203)';'V2(R202)' 'V(203)';'VE(Q201)';'VC(Q202)';
'VB(Q202)' 'V(206)';'VC(Q203)';'VC(Q204)';'VC(Q205)';'VB(Q208)' 'V(207)';'VE(Q203)';'VE(Q209)';'VE(Q213)';'V2(R203)';'V1(R205)' 'V(209)';
'VB(Q204)';'VC(Q207)';'VB(Q207)';'VE(Q208)' 'V(204)';'VE(Q204)';'V2(R204)' 'V(215)';'VB(Q205)';'VB(Q209)';'VB(Q213)';'VB(Q219)';'V2(R208)';
'V1(R209)';'V2(R213)' 'V(205)';'VE(Q205)';'V1(R203)' 'V(208)';'VC(Q206)';'VB(Q206)';'VB(Q218)';'VB(Q221)';'V2(R205)' 'V(210)';'VE(Q207)';
'V2(R206)' 'V(211)';'VC(Q208)';'VC(Q209)';'VB(Q211)';'VB(Q215)';'V2(XC201.VSENSE1)' 'V(212)';'VC(Q210)';'VB(Q210)';'VC(Q211)';'VB(Q212)';
'VB(Q214)';'VB(Q216)' 'V(214)';'VE(Q210)';'V2(R207)' 'V(213)';'VE(Q211)';'V1(R208)' 'V(216)';'VE(Q212)';'V2(R210)' 'V(218)';'VE(Q214)';
'V2(R212)' 'V(219)';'VE(Q215)';'V1(R213)' 'V(220)';'VE(Q216)';'V2(R214)' 'V(221)';'VC(Q217)';'VB(Q217)';'VC(Q218)';'VB(Q220)' 'V(222)';
'VE(Q219)';'VE(Q222)';'VC(Q223)';'VB(Q223)';'VB(Q225)' 'V(VH)';'VC(Q220)';'VC(Q222)';'VB(Q222)' 'V(224)';'VC(Q221)';'VC(Q224)';'VB(Q224)';
'VB(Q226)' 'V(223)';'VE(Q223)';'VE(Q224)' 'V(VBG)';'V2(D202)';'VE(Q225)';'VE(Q226)' 'V(201)';'V2(R201)';'V1(R202)' 'V(XC201.NVS)';
'V2(XC201.CNI)';'V2(XC201.DSUB)';'V1(XC201.VSENSE1)' 'I(XC201.CNI)' 'I(D201)' 'I(D202)' 'I(XC201.DSUB)' 'I(R01)' 'I(R02)' 'I(R03)' 'I(R04)' 
'I(R05)' 'I(R201)' 'I(R202)' 'I(R203)' 'I(R204)' 'I(R205)' 'I(R206)' 'I(R207)' 'I(R208)' 'I(R209)' 'I(R210)' 'I(R212)' 'I(R213)' 'I(R214)' 
'I(VCC)' 'I(VSUB)' 'I(XC201.VSENSE1)' 'IC(Q201)' 'IB(Q201)' 'IE(Q201)' 'IS(Q201)' 'IC(Q202)' 'IB(Q202)' 'IE(Q202)' 'IS(Q202)' 'IC(Q203)' 
'IB(Q203)' 'IE(Q203)' 'IS(Q203)' 'IC(Q204)' 'IB(Q204)' 'IE(Q204)' 'IS(Q204)' 'IC(Q205)' 'IB(Q205)' 'IE(Q205)' 'IS(Q205)' 'IC(Q206)' 'IB(Q206)' 
'IE(Q206)' 'IS(Q206)' 'IC(Q207)' 'IB(Q207)' 'IE(Q207)' 'IS(Q207)' 'IC(Q208)' 'IB(Q208)' 'IE(Q208)' 'IS(Q208)' 'IC(Q209)' 'IB(Q209)' 'IE(Q209)' 
'IS(Q209)' 'IC(Q210)' 'IB(Q210)' 'IE(Q210)' 'IS(Q210)' 'IC(Q211)' 'IB(Q211)' 'IE(Q211)' 'IS(Q211)' 'IC(Q212)' 'IB(Q212)' 'IE(Q212)' 'IS(Q212)' 
'IC(Q213)' 'IB(Q213)' 'IE(Q213)' 'IS(Q213)' 'IC(Q214)' 'IB(Q214)' 'IE(Q214)' 'IS(Q214)' 'IC(Q215)' 'IB(Q215)' 'IE(Q215)' 'IS(Q215)' 'IC(Q216)' 
'IB(Q216)' 'IE(Q216)' 'IS(Q216)' 'IC(Q217)' 'IB(Q217)' 'IE(Q217)' 'IS(Q217)' 'IC(Q218)' 'IB(Q218)' 'IE(Q218)' 'IS(Q218)' 'IC(Q219)' 'IB(Q219)' 
'IE(Q219)' 'IS(Q219)' 'IC(Q220)' 'IB(Q220)' 'IE(Q220)' 'IS(Q220)' 'IC(Q221)' 'IB(Q221)' 'IE(Q221)' 'IS(Q221)' 'IC(Q222)' 'IB(Q222)' 'IE(Q222)' 
'IS(Q222)' 'IC(Q223)' 'IB(Q223)' 'IE(Q223)' 'IS(Q223)' 'IC(Q224)' 'IB(Q224)' 'IE(Q224)' 'IS(Q224)' 'IC(Q225)' 'IB(Q225)' 'IE(Q225)' 'IS(Q225)' 
'IC(Q226)' 'IB(Q226)' 'IE(Q226)' 'IS(Q226)' 
#C 1.0000000000E00 162
1.0000000E00/0.0000000E00:1 1.0416777E-02/2.2811745E-06:2 1.0416777E-02/2.2811745E-06:3 1.0416777E-02/2.2811745E-06:4 
9.8734810E-01/-1.6815712E-06:5 9.9684224E-01/-6.8593697E-07:6 0.0000000E00/0.0000000E00:7 1.4071288E-02/1.8088857E-09:8 
7.0356440E-03/8.8463382E-10:9 1.0000464E00/-8.9987480E-08:A 3.9132336E-03/6.3183454E-07:B 9.9980314E-01/-7.2155745E-08:C 
9.9987416E-01/-4.6697091E-08:D 3.9760346E-03/6.5162448E-07:E 4.0253032E-03/6.4511145E-07:F 9.4311320E-05/1.5441553E-08:10 
9.9987424E-01/-4.6647059E-08:11 3.9967998E-03/6.7016248E-07:12 9.9985363E-01/-9.3441910E-08:13 9.9990651E-01/-6.0229934E-08:14 
4.0625522E-03/6.6438807E-07:15 9.9971009E-01/-5.9921398E-08:16 9.9971009E-01/-5.9921398E-08:17 4.0627334E-03/6.6435317E-07:18 
9.9971009E-01/-5.9921398E-08:19 9.9972378E-01/-3.0387491E-08:1A 5.0877881E-03/6.9682219E-07:1B 5.5422147E-03/7.2095705E-07:1C 
4.8808341E-03/6.6244595E-07:1D 4.9944845E-03/6.8131623E-07:1E 5.0503717E-03/6.8102541E-07:1F 5.0703564E-01/9.0444284E-10:20 
3.9967998E-03/6.7016248E-07:21 3.2422814E-17/-1.9336728E-13:22 -1.0000001E-13/-8.4263477E-11:23 -4.3045069E-16/-5.5312156E-13:24 
-3.9759085E-16/-1.2459461E-14:25 1.0416777E-07/2.2811745E-11:26 1.0416777E-07/2.2811745E-11:27 1.0416777E-07/2.2811745E-11:28 
1.2651902E-07/1.6815712E-11:29 3.1577599E-08/6.8593697E-12:2A 2.4648218E-06/-4.5222142E-15:2B 2.4648218E-06/-4.5222142E-15:2C 
4.3103713E-08/5.1065024E-12:2D 4.4943656E-08/1.6677533E-11:2E 2.1822413E-07/3.5222456E-11:2F 4.4915687E-08/1.6659664E-11:30 
3.3388738E-08/2.1510691E-11:31 3.0899137E-08/4.5584230E-12:32 6.6267243E-08/1.0860408E-11:33 1.0353926E-07/2.1400499E-11:34 
1.0353926E-07/2.1400499E-11:35 3.0963881E-08/4.5459592E-12:36 1.0353926E-07/2.1400499E-11:37 -4.4703908E-06/-3.4421368E-10:38 
0.0000000E00/0.0000000E00:39 -3.6516804E-16/-2.0582674E-13:3A 2.4357524E-06/3.4311951E-13:3B 2.9069411E-08/2.2339870E-14:3C 
-2.4648218E-06/-3.3991623E-13:3D 3.2593875E-21/-2.5543143E-14:3E 2.4357524E-06/3.1774005E-13:3F 2.9069411E-08/2.2176179E-14:40 
-2.4648218E-06/-3.2603688E-13:41 1.7342229E-21/-1.3879356E-14:42 1.1239584E-13/1.8231470E-12:43 -9.8500824E-15/-3.6998159E-13:44 
-1.0254563E-13/-7.5689178E-15:45 -1.3116798E-19/-1.4455965E-12:46 -4.4645114E-08/-1.6561337E-11:47 -2.9854185E-10/2.6209283E-12:48 
4.4943656E-08/1.6677533E-11:49 -1.9977719E-19/-2.7371234E-12:4A 4.3581229E-08/9.1249215E-12:4B -4.7751588E-10/-1.3351997E-12:4C 
-4.3103713E-08/-5.1065024E-12:4D -2.4480059E-19/-2.6832194E-12:4E 2.1324119E-07/3.4913667E-11:4F 2.4928485E-09/4.0920119E-13:50 
-2.1573404E-07/-3.5322768E-11:51 1.6373635E-20/-1.0000320E-16:52 -4.4615313E-08/-1.6542232E-11:53 -3.0037405E-10/2.6196912E-12:54 
4.4915687E-08/1.6659664E-11:55 -1.9977571E-19/-2.7371234E-12:56 -4.6278001E-08/-1.4012913E-11:57 1.0637724E-09/5.6132690E-12:58 
4.5214229E-08/1.1301612E-11:59 -2.6420498E-19/-2.9019681E-12:5A 4.7495785E-08/1.4973855E-11:5B 5.5359753E-10/1.7468238E-13:5C 
-4.8049383E-08/-1.5142534E-11:5D 1.0021527E-18/-6.0028255E-15:5E -3.3165506E-08/-2.1362398E-11:5F -2.2323230E-10/2.5889520E-12:60 
3.3388738E-08/2.1510691E-11:61 -2.5802223E-19/-2.7372452E-12:62 3.1503203E-08/6.3279748E-12:63 -6.0406562E-10/-4.0112474E-13:64 
-3.0899137E-08/-4.5584230E-12:65 -1.3146571E-19/-1.3684270E-12:66 -1.0416777E-07/-2.2811745E-11:67 6.2851173E-10/4.1484902E-12:68 
1.0353926E-07/2.1400499E-11:69 -2.5807782E-19/-2.7372446E-12:6A 1.2651902E-07/1.6815712E-11:6B 5.5191359E-10/-3.3025510E-13:6C 
-1.2707093E-07/-1.4965851E-11:6D -2.5988967E-18/-1.5196064E-12:6E -1.0416777E-07/-2.2811745E-11:6F 6.2851173E-10/4.1484902E-12:70 
1.0353926E-07/2.1400499E-11:71 -2.5807782E-19/-2.7372446E-12:72 3.1577599E-08/6.8593697E-12:73 -6.1371848E-10/-7.6564358E-13:74 
-3.0963881E-08/-4.5459592E-12:75 -1.0694462E-18/-1.5477669E-12:76 -1.0416777E-07/-2.2811745E-11:77 6.2851173E-10/4.1484902E-12:78 
1.0353926E-07/2.1400499E-11:79 -2.5807782E-19/-2.7372446E-12:7A -2.9987282E-07/-3.3898264E-11:7B -2.6294312E-09/2.3909540E-12:7C 
3.0250225E-07/3.4236464E-11:7D -8.4991854E-20/-2.7291549E-12:7E 3.0497799E-07/2.5889734E-11:7F 1.6589030E-09/-2.3467542E-13:80 
-3.0663689E-07/-2.3913331E-11:81 -6.4583641E-20/-1.7417284E-12:82 -6.0877231E-07/-2.4825720E-11:83 
-5.0322201E-09/-2.6525341E-13:84 6.1380453E-07/2.5090973E-11:85 0.0000000E00/0.0000000E00:86 -6.8413806E-07/-3.6343999E-11:87 
-2.4757361E-09/5.6175751E-12:88 6.8661379E-07/3.3455578E-11:89 -8.5897379E-20/-2.7291548E-12:8A 7.1782634E-08/1.1752983E-11:8B 
8.3118220E-10/1.3426336E-13:8C -7.2613816E-08/-1.1878421E-11:8D 1.1962796E-18/-8.8251944E-15:8E 6.7633028E-07/3.5926534E-11:8F 
7.8077735E-09/4.1746508E-13:90 -6.8413806E-07/-3.6336497E-11:91 1.0064989E-18/-7.5016964E-15:92 6.8250207E-08/1.1350021E-11:93 
7.9856178E-10/1.3306897E-13:94 -6.9048768E-08/-1.1475367E-11:95 1.0565421E-18/-7.7234705E-15:96 -6.8593443E-08/-1.1390442E-11:97 
-4.5532557E-10/-6.6922659E-14:98 6.9048768E-08/1.1475367E-11:99 2.4432917E-18/-1.8001881E-14:9A 4.2449036E-07/4.9538213E-11:9B 
1.2847578E-09/-2.3756660E-13:9C -4.2577512E-07/-4.7345416E-11:9D -1.8985875E-20/-1.9552310E-12:9E -4.2304125E-07/-4.6467872E-11:9F 
-2.7338656E-09/-2.9561817E-13:A0 4.2577511E-07/4.6792294E-11:A1 3.9094108E-18/-2.8804575E-14:A2 
#C 1.2589254118E00 162
1.0000000E00/0.0000000E00:1 1.0416777E-02/2.8718285E-06:2 1.0416777E-02/2.8718285E-06:3 1.0416777E-02/2.8718285E-06:4 
9.8734810E-01/-2.1169728E-06:5 9.9684224E-01/-8.6354348E-07:6 0.0000000E00/0.0000000E00:7 1.4071288E-02/2.2772522E-09:8 
7.0356440E-03/1.1136880E-09:9 1.0000464E00/-1.1328752E-07:A 3.9132336E-03/7.9543256E-07:B 9.9980314E-01/-9.0838701E-08:C 
9.9987416E-01/-5.8788155E-08:D 3.9760346E-03/8.2034662E-07:E 4.0253032E-03/8.1214719E-07:F 9.4311320E-05/1.9439764E-08:10 
9.9987424E-01/-5.8725168E-08:11 3.9967998E-03/8.4368458E-07:12 9.9985363E-01/-1.1763640E-07:13 9.9990651E-01/-7.5824994E-08:14 
4.0625522E-03/8.3641502E-07:15 9.9971009E-01/-7.5436570E-08:16 9.9971009E-01/-7.5436570E-08:17 4.0627334E-03/8.3637109E-07:18 
9.9971009E-01/-7.5436570E-08:19 9.9972378E-01/-3.8255585E-08:1A 5.0877881E-03/8.7724716E-07:1B 5.5422147E-03/9.0763115E-07:1C 
4.8808341E-03/8.3397004E-07:1D 4.9944845E-03/8.5772631E-07:1E 5.0503717E-03/8.5736020E-07:1F 5.0703564E-01/1.1386261E-09:20 
3.9967998E-03/8.4368458E-07:21 5.1386697E-17/-2.4343498E-13:22 -1.0000001E-13/-1.0608143E-10:23 -3.8682556E-16/-6.9633879E-13:24 
-3.9636894E-16/-1.5685532E-14:25 1.0416777E-07/2.8718285E-11:26 1.0416777E-07/2.8718285E-11:27 1.0416777E-07/2.8718285E-11:28 
1.2651902E-07/2.1169728E-11:29 3.1577599E-08/8.6354348E-12:2A 2.4648218E-06/-5.6931304E-15:2B 2.4648218E-06/-5.6931304E-15:2C 
4.3103713E-08/6.4287056E-12:2D 4.4943656E-08/2.0995770E-11:2E 2.1822413E-07/4.4342445E-11:2F 4.4915687E-08/2.0973274E-11:30 
3.3388738E-08/2.7080355E-11:31 3.0899137E-08/5.7387146E-12:32 6.6267243E-08/1.3672444E-11:33 1.0353926E-07/2.6941632E-11:34 
1.0353926E-07/2.6941632E-11:35 3.0963881E-08/5.7230236E-12:36 1.0353926E-07/2.6941632E-11:37 -4.4703908E-06/-4.3333935E-10:38 
0.0000000E00/0.0000000E00:39 -3.4498224E-16/-2.5912051E-13:3A 2.4357524E-06/4.3196186E-13:3B 2.9069411E-08/2.8124230E-14:3C 
-2.4648218E-06/-4.2792918E-13:3D 5.1657811E-21/-3.2156911E-14:3E 2.4357524E-06/4.0001103E-13:3F 2.9069411E-08/2.7918155E-14:40 
-2.4648218E-06/-4.1045611E-13:41 2.7485581E-21/-1.7473074E-14:42 1.1239594E-13/2.2952061E-12:43 -9.8498285E-15/-4.6577923E-13:44 
-1.0254590E-13/-9.5287030E-15:45 -2.0788723E-19/-1.8198982E-12:46 -4.4645114E-08/-2.0849489E-11:47 -2.9854185E-10/3.2995532E-12:48 
4.4943656E-08/2.0995770E-11:49 -3.1662551E-19/-3.4458342E-12:4A 4.3581229E-08/1.1487596E-11:4B -4.7751589E-10/-1.6809168E-12:4C 
-4.3103713E-08/-6.4287056E-12:4D -3.8798279E-19/-3.3779731E-12:4E 2.1324119E-07/4.3953703E-11:4F 2.4928485E-09/5.1515377E-13:50 
-2.1573404E-07/-4.4468731E-11:51 2.5950462E-20/-1.2589657E-16:52 -4.4615313E-08/-2.0825436E-11:53 -3.0037405E-10/3.2979958E-12:54 
4.4915687E-08/2.0973274E-11:55 -3.1662317E-19/-3.4458342E-12:56 -4.6278001E-08/-1.7641213E-11:57 1.0637724E-09/7.0666869E-12:58 
4.5214229E-08/1.4227887E-11:59 -4.1873668E-19/-3.6533614E-12:5A 4.7495785E-08/1.8850966E-11:5B 5.5359753E-10/2.1991209E-13:5C 
-4.8049383E-08/-1.9063321E-11:5D 1.5883050E-18/-7.5571096E-15:5E -3.3165506E-08/-2.6893665E-11:5F -2.2323230E-10/3.2592975E-12:60 
3.3388738E-08/2.7080355E-11:61 -4.0893767E-19/-3.4459875E-12:62 3.1503203E-08/7.9664483E-12:63 -6.0406562E-10/-5.0498613E-13:64 
-3.0899137E-08/-5.7387146E-12:65 -2.0835911E-19/-1.7227476E-12:66 -1.0416777E-07/-2.8718285E-11:67 6.2851173E-10/5.2226398E-12:68 
1.0353926E-07/2.6941632E-11:69 -4.0902579E-19/-3.4459867E-12:6A 1.2651902E-07/2.1169728E-11:6B 5.5191359E-10/-4.1576653E-13:6C 
-1.2707093E-07/-1.8840890E-11:6D -4.1189737E-18/-1.9130711E-12:6E -1.0416777E-07/-2.8718285E-11:6F 6.2851173E-10/5.2226398E-12:70 
1.0353926E-07/2.6941632E-11:71 -4.0902579E-19/-3.4459867E-12:72 3.1577599E-08/8.6354348E-12:73 -6.1371848E-10/-9.6388816E-13:74 
-3.0963881E-08/-5.7230236E-12:75 -1.6949580E-18/-1.9485231E-12:76 -1.0416777E-07/-2.8718285E-11:77 6.2851173E-10/5.2226398E-12:78 
1.0353926E-07/2.6941632E-11:79 -4.0902579E-19/-3.4459867E-12:7A -2.9987282E-07/-4.2675385E-11:7B -2.6294312E-09/3.0100327E-12:7C 
3.0250225E-07/4.3101155E-11:7D -1.3470301E-19/-3.4358024E-12:7E 3.0497799E-07/3.2593245E-11:7F 1.6589030E-09/-2.9543885E-13:80 
-3.0663689E-07/-3.0105100E-11:81 -1.0235817E-19/-2.1927061E-12:82 -6.0877231E-07/-3.1253730E-11:83 
-5.0322201E-09/-3.3393426E-13:84 6.1380453E-07/3.1587664E-11:85 0.0000000E00/0.0000000E00:86 -6.8413806E-07/-4.5754384E-11:87 
-2.4757361E-09/7.0721080E-12:88 6.8661379E-07/4.2118078E-11:89 -1.3613817E-19/-3.4358023E-12:8A 7.1782634E-08/1.4796129E-11:8B 
8.3118220E-10/1.6902755E-13:8C -7.2613816E-08/-1.4954046E-11:8D 1.8959753E-18/-1.1110261E-14:8E 6.7633028E-07/4.5228826E-11:8F 
7.8077735E-09/5.2555740E-13:90 -6.8413806E-07/-4.5744939E-11:91 1.5951933E-18/-9.4440762E-15:92 6.8250207E-08/1.4288830E-11:93 
7.9856178E-10/1.6752391E-13:94 -6.9048768E-08/-1.4446631E-11:95 1.6745064E-18/-9.7232733E-15:96 -6.8593443E-08/-1.4339717E-11:97 
-4.5532557E-10/-8.4250636E-14:98 6.9048768E-08/1.4446631E-11:99 3.8723564E-18/-2.2663026E-14:9A 4.2449036E-07/6.2364916E-11:9B 
1.2847578E-09/-2.9907863E-13:9C -4.2577512E-07/-5.9604347E-11:9D -3.0090584E-20/-2.4614899E-12:9E -4.2304125E-07/-5.8499584E-11:9F 
-2.7338656E-09/-3.7216122E-13:A0 4.2577511E-07/5.8908008E-11:A1 6.1959986E-18/-3.6262811E-14:A2 
#C 1.5848931925E00 162
1.0000000E00/0.0000000E00:1 1.0416777E-02/3.6154179E-06:2 1.0416777E-02/3.6154179E-06:3 1.0416777E-02/3.6154179E-06:4 
9.8734810E-01/-2.6651108E-06:5 9.9684224E-01/-1.0871368E-06:6 0.0000000E00/0.0000000E00:7 1.4071288E-02/2.8668906E-09:8 
7.0356440E-03/1.4020501E-09:9 1.0000464E00/-1.4262054E-07:A 3.9132336E-03/1.0013903E-06:B 9.9980314E-01/-1.1435915E-07:C 
9.9987416E-01/-7.4009902E-08:D 3.9760346E-03/1.0327552E-06:E 4.0253032E-03/1.0224327E-06:F 9.4311320E-05/2.4473213E-08:10 
9.9987424E-01/-7.3930606E-08:11 3.9967998E-03/1.0621360E-06:12 9.9985363E-01/-1.4809545E-07:13 9.9990651E-01/-9.5458012E-08:14 
4.0625522E-03/1.0529841E-06:15 9.9971009E-01/-9.4969015E-08:16 9.9971009E-01/-9.4969015E-08:17 4.0627334E-03/1.0529288E-06:18 
9.9971009E-01/-9.4969015E-08:19 9.9972378E-01/-4.8160928E-08:1A 5.0877881E-03/1.1043887E-06:1B 5.5422147E-03/1.1426399E-06:1C 
4.8808341E-03/1.0499061E-06:1D 4.9944845E-03/1.0798135E-06:1E 5.0503717E-03/1.0793525E-06:1F 5.0703564E-01/1.4334453E-09:20 
3.9967998E-03/1.0621360E-06:21 8.1442427E-17/-3.0646649E-13:22 -1.0000002E-13/-1.3354861E-10:23 -3.1768440E-16/-8.7663859E-13:24 
-3.9443233E-16/-1.9746915E-14:25 1.0416777E-07/3.6154179E-11:26 1.0416777E-07/3.6154179E-11:27 1.0416777E-07/3.6154179E-11:28 
1.2651902E-07/2.6651108E-11:29 3.1577599E-08/1.0871368E-11:2A 2.4648218E-06/-7.1672265E-15:2B 2.4648218E-06/-7.1672265E-15:2C 
4.3103713E-08/8.0932608E-12:2D 4.4943656E-08/2.6432108E-11:2E 2.1822413E-07/5.5823831E-11:2F 4.4915687E-08/2.6403788E-11:30 
3.3388738E-08/3.4092147E-11:31 3.0899137E-08/7.2246136E-12:32 6.6267243E-08/1.7212587E-11:33 1.0353926E-07/3.3917505E-11:34 
1.0353926E-07/3.3917505E-11:35 3.0963881E-08/7.2048598E-12:36 1.0353926E-07/3.3917505E-11:37 -4.4703908E-06/-5.4554191E-10:38 
0.0000000E00/0.0000000E00:39 -3.1298991E-16/-3.2621340E-13:3A 2.4357524E-06/5.4380777E-13:3B 2.9069411E-08/3.5406308E-14:3C 
-2.4648218E-06/-5.3873092E-13:3D 8.1872112E-21/-4.0483153E-14:3E 2.4357524E-06/5.0358405E-13:3F 2.9069411E-08/3.5146875E-14:40 
-2.4648218E-06/-5.1673363E-13:41 4.3561711E-21/-2.1997297E-14:42 1.1239609E-13/2.8894933E-12:43 -9.8494262E-15/-5.8638130E-13:44 
-1.0254634E-13/-1.1995926E-14:45 -3.2947906E-19/-2.2911160E-12:46 -4.4645114E-08/-2.6247951E-11:47 -2.9854185E-10/4.1538914E-12:48 
4.4943656E-08/2.6432108E-11:49 -5.0181761E-19/-4.3380482E-12:4A 4.3581229E-08/1.4462026E-11:4B -4.7751589E-10/-2.1161489E-12:4C 
-4.3103713E-08/-8.0932608E-12:4D -6.1491128E-19/-4.2526162E-12:4E 2.1324119E-07/5.5334434E-11:4F 2.4928485E-09/6.4854018E-13:50 
-2.1573404E-07/-5.5982815E-11:51 4.1128711E-20/-1.5849439E-16:52 -4.4615313E-08/-2.6217671E-11:53 -3.0037405E-10/4.1519308E-12:54 
4.4915687E-08/2.6403788E-11:55 -5.0181390E-19/-4.3380482E-12:56 -4.6278002E-08/-2.2208971E-11:57 1.0637724E-09/8.8964318E-12:58 
4.5214229E-08/1.7911848E-11:59 -6.6365291E-19/-4.5993095E-12:5A 4.7495785E-08/2.3731961E-11:5B 5.5359753E-10/2.7685291E-13:5C 
-4.8049383E-08/-2.3999300E-11:5D 2.5172938E-18/-9.5138373E-15:5E -3.3165506E-08/-3.3857118E-11:5F -2.2323230E-10/4.1032125E-12:60 
3.3388738E-08/3.4092147E-11:61 -6.4812253E-19/-4.3382412E-12:62 3.1503203E-08/1.0029164E-11:63 -6.0406562E-10/-6.3573987E-13:64 
-3.0899137E-08/-7.2246136E-12:65 -3.3022693E-19/-2.1688107E-12:66 -1.0416777E-07/-3.6154179E-11:67 6.2851173E-10/6.5749139E-12:68 
1.0353926E-07/3.3917505E-11:69 -6.4826219E-19/-4.3382403E-12:6A 1.2651902E-07/2.6651108E-11:6B 5.5191359E-10/-5.2341906E-13:6C 
-1.2707093E-07/-2.3719275E-11:6D -6.5281334E-18/-2.4084139E-12:6E -1.0416777E-07/-3.6154179E-11:6F 6.2851173E-10/6.5749139E-12:70 
1.0353926E-07/3.3917505E-11:71 -6.4826219E-19/-4.3382403E-12:72 3.1577599E-08/1.0871368E-11:73 -6.1371848E-10/-1.2134633E-12:74 
-3.0963881E-08/-7.2048598E-12:75 -2.6863274E-18/-2.4530452E-12:76 -1.0416777E-07/-3.6154179E-11:77 6.2851173E-10/6.5749139E-12:78 
1.0353926E-07/3.3917505E-11:79 -6.4826219E-19/-4.3382403E-12:7A -2.9987282E-07/-5.3725127E-11:7B -2.6294312E-09/3.7894067E-12:7C 
3.0250225E-07/5.4261139E-11:7D -2.1348988E-19/-4.3254190E-12:7E 3.0497799E-07/4.1032464E-11:7F 1.6589030E-09/-3.7193547E-13:80 
-3.0663689E-07/-3.7900075E-11:81 -1.6222677E-19/-2.7604534E-12:82 -6.0877231E-07/-3.9346115E-11:83 
-5.0322201E-09/-4.2039832E-13:84 6.1380453E-07/3.9766513E-11:85 0.0000000E00/0.0000000E00:86 -6.8413806E-07/-5.7601356E-11:87 
-2.4757361E-09/8.9032565E-12:88 6.8661379E-07/5.3023519E-11:89 -2.1576446E-19/-4.3254188E-12:8A 7.1782634E-08/1.8627223E-11:8B 
8.3118220E-10/2.1279308E-13:8C -7.2613816E-08/-1.8826029E-11:8D 3.0049184E-18/-1.3986990E-14:8E 6.7633028E-07/5.6939719E-11:8F 
7.8077735E-09/6.6163757E-13:90 -6.8413806E-07/-5.7589467E-11:91 2.5282110E-18/-1.1889388E-14:92 6.8250207E-08/1.7988571E-11:93 
7.9856178E-10/2.1090011E-13:94 -6.9048768E-08/-1.8187231E-11:95 2.6539139E-18/-1.2240876E-14:96 -6.8593443E-08/-1.8052634E-11:97 
-4.5532557E-10/-1.0606527E-13:98 6.9048768E-08/1.8187231E-11:99 6.1372714E-18/-2.8531059E-14:9A 4.2449036E-07/7.8512777E-11:9B 
1.2847578E-09/-3.7651768E-13:9C -4.2577512E-07/-7.5037427E-11:9D -4.7690362E-20/-3.0988322E-12:9E -4.2304125E-07/-7.3646613E-11:9F 
-2.7338656E-09/-4.6852322E-13:A0 4.2577512E-07/7.4160789E-11:A1 9.8199960E-18/-4.5652174E-14:A2 
#C 1.9952623150E00 162
1.0000000E00/0.0000000E00:1 1.0416777E-02/4.5515415E-06:2 1.0416777E-02/4.5515415E-06:3 1.0416777E-02/4.5515415E-06:4 
9.8734810E-01/-3.3551757E-06:5 9.9684224E-01/-1.3686242E-06:6 0.0000000E00/0.0000000E00:7 1.4071288E-02/3.6092014E-09:8 
7.0356440E-03/1.7650765E-09:9 1.0000464E00/-1.7954863E-07:A 3.9132336E-03/1.2606756E-06:B 9.9980314E-01/-1.4396964E-07:C 
9.9987416E-01/-9.3172946E-08:D 3.9760346E-03/1.3001618E-06:E 4.0253032E-03/1.2871666E-06:F 9.4311320E-05/3.0809949E-08:10 
9.9987424E-01/-9.3073119E-08:11 3.9967998E-03/1.3371499E-06:12 9.9985363E-01/-1.8644112E-07:13 9.9990651E-01/-1.2017452E-07:14 
4.0625522E-03/1.3256285E-06:15 9.9971009E-01/-1.1955891E-07:16 9.9971009E-01/-1.1955891E-07:17 4.0627334E-03/1.3255588E-06:18 
9.9971009E-01/-1.1955891E-07:19 9.9972378E-01/-6.0631017E-08:1A 5.0877881E-03/1.3903431E-06:1B 5.5422147E-03/1.4384984E-06:1C 
