
**** 08/26/125 16:08:09 ****** NT PSpice 8.0 (July 1997) ****** ID# 74155 ****

 FB2/DEFAULT    BIAS (VER. 22)   * RULES NPN:AE PNP:AE RP:AE


 ****     CIRCUIT DESCRIPTION


******************************************************************************



* INSPICE Version 7.4   Freitag, 28. Januar 2000   8:59:44
.TEMP 27
.OPT NUMDGT=8 RELTOL=0.001 ABSTOL=1PA VNTOL=1UV LIMPTS=0 ITL1=400
+ ITL2=60 ITL4=10 ITL5=0 CHGTOL=0.001PC PIVTOL=1E-13 PIVREL=2E-4 GMIN=1E-13
+ DIGFREQ=100G DIGDRVZ=100K
VCC VCC 0 5V AC 1
R01 IP1 0 100K
R02 IP4 0 100K
R03 IP5 0 100K
R04 VCC IN3 100K
R05 VCC IN31 100K
VSUB SUB 0 0V
.AC DEC 10 1HZ 100MEGHZ
Q201 202 202 203 0 N1
Q202 203 203 0 0 N1
Q203 206 202 207 0 N1
Q204 206 209 204 0 P1
Q205 206 215 205 0 N8
Q206 208 208 0 0 N4 0.750
Q207 209 209 210 0 P1
Q208 211 206 209 0 P1
Q209 211 215 207 0 N1
Q210 212 212 214 0 P1
Q211 212 211 213 0 N1
Q212 IP5 212 216 0 P1
Q213 IN3 215 207 0 N1
Q214 IP4 212 218 0 P1
Q215 IN31 211 219 0 N1
Q216 IP1 212 220 0 P1
Q217 221 221 VCC 0 P1
Q218 221 208 0 0 N2
Q219 0 215 222 0 S1
Q220 VH 221 VCC 0 P1
Q221 224 208 0 0 N1
Q222 VH VH 222 0 N1
Q223 222 222 223 0 N1
Q224 224 224 223 0 P1
Q225 VCC 222 VBG 0 N4
Q226 0 224 VBG 0 P4
D201 0 VCC DTISN1 36.000
D202 0 VBG DTISN1 36.000
R201 VCC 201 RPN 200K
R202 201 202 RPN 200K
R203 205 207 RP 2.6K
R204 VCC 204 RP 2.8K
R205 207 208 RP 17.5K
R206 VCC 210 RP 2.8K
R207 VCC 214 RP 2.8K
R208 213 215 RP 2.8K
R209 215 0 RP 60K
R210 VCC 216 RP 2.8K
R212 VCC 218 RP 2.8K
R213 219 215 RP 2.8K
R214 VCC 220 RP 2.8K
XC201 0 211 0 KNIN PARAMS:AREA=14K
.SUBCKT KNIN AL1 N SUB PARAMS:AREA=1
CNI AL1 NVS {0.55F*AREA}
DSUB SUB NVS DSEPI {AREA}
VSENSE1 NVS N
.ENDS
.OP
.PROBE/CSDF
.MODEL N1 NPN (IS=3.67E-17 BF=1.10E+02 NF=1 VAF=2.50E+02 IKF=6M ISE=6E-18
+ NE=1.18 BR=10 NR=1 VAR=30 ISC=0 NC=2 RB=280 IRB=30U RBM=35 RE=2.4 RC=413
+ XTB=.5 EG=1.186 XTI=3.2 CJE=137F VJE=755M MJE=340M TF=440P XTF=38 VTF=2.9
+ ITF=25M CJC=103F VJC=500M MJC=305M XCJC=222M TR=44N CJS=485F VJS=655M MJS=396M
+ FC=700M TRC1=3M)
.MODEL P1 LPNP (IS=3.83E-16 BF=2.50E+02 NF=1 VAF=1.00E+02 IKF=80U ISE=0.5F
+ NE=1.46 BR=37 NR=1 VAR=30 IKR=90U ISC=0 NC=1.47 RB=312 RE=40 RC=550 XTB=-400M
+ EG=1.186 XTI=10.7 CJE=44F VJE=580M MJE=270M TF=14N XTF=500M VTF=600M ITF=1U
+ CJC=434F VJC=590M MJC=375M XCJC=0 TR=42N FC=700M CJS=1P VJS=690M MJS=420M)
.MODEL N8 NPN (IS=2.94E-16 BF=1.10E+02 NF=1 VAF=2.50E+02 IKF=48M ISE=48E-18
+ NE=1.18 BR=10 NR=1 VAR=30 ISC=0 NC=2 RB=45 IRB=240U RBM=6 RE=.3 RC=137 XTB=.5
+ EG=1.186 XTI=3.2 CJE=1.1P VJE=755M MJE=340M TF=440P XTF=38 VTF=2.9 ITF=200M
+ CJC=324F VJC=500M MJC=305M XCJC=222M TR=44N CJS=900F VJS=655M MJS=396M FC=700M
+ TRC1=3M)
.MODEL N4 NPN (IS=1.47E-16 BF=1.10E+02 NF=1 VAF=2.50E+02 IKF=24M ISE=24E-18
+ NE=1.18 BR=10 NR=1 VAR=30 ISC=0 NC=2 RB=90 IRB=120U RBM=11 RE=.6 RC=196 XTB=.5
+ EG=1.186 XTI=3.2 CJE=488F VJE=755M MJE=340M TF=440P XTF=38 VTF=2.9 ITF=100M
+ CJC=202F VJC=500M MJC=305M XCJC=222M TR=44N CJS=730F VJS=655M MJS=396M FC=700M
+ TRC1=3M)
.MODEL N2 NPN (IS=7.34E-17 BF=1.10E+02 NF=1 VAF=2.50E+02 IKF=12M ISE=12E-18
+ NE=1.18 BR=10 NR=1 VAR=30 ISC=0 NC=2 RB=140 IRB=60U RBM=18 RE=1.2 RC=258
+ XTB=.5 EG=1.186 XTI=3.2 CJE=274F VJE=755M MJE=340M TF=440P XTF=38 VTF=2.9
+ ITF=50M CJC=154F VJC=500M MJC=305M XCJC=222M TR=44N CJS=619F VJS=655M MJS=396M
+ FC=700M TRC1=3M)
.MODEL S1 PNP (IS=3.67E-16 BF=2.50E+02 NF=1 VAF=1.20E+02 IKF=40U ISE=2.3E-16
+ NE=1.45 BR=700M NR=1 VAR=25 IKR=200U ISC=8F NC=1.35 RB=100 RE=40 RC=60
+ XTB=-500M EG=1.186 XTI=2.7 CJE=50F VJE=900M MJE=330M TF=16N XTF=500M VTF=800M
+ CJC=328F VJC=630M MJC=410M XCJC=24M TR=1.6U FC=700M)
.MODEL P4 LPNP (IS=1.53E-15 BF=2.50E+02 NF=1 VAF=1.00E+02 IKF=320U ISE=2.0F
+ NE=1.46 BR=37 NR=1 VAR=30 IKR=360U ISC=0 NC=1.47 RB=160 RE=6.4 RC=335
+ XTB=-400M EG=1.186 XTI=10.7 CJE=184F VJE=580M MJE=270M TF=14N XTF=500M
+ VTF=600M ITF=4U CJC=725F VJC=590M MJC=375M XCJC=0 TR=42N FC=700M CJS=1.6P
+ VJS=690M MJS=420M)
.MODEL DTISN1 D (IS=5.13E-14 IKF=6M N=1.18 BV=6.2 NBV=.5 RS=40 EG=1.186
+ XTI=3.2 CJO=928F VJ=680M M=430M FC=700M TBV1=350U)
.MODEL RPN RES (R=1.00E+00 TC1=5.155M TC2=9.31U)
.MODEL RP RES (R=1.00E+00 TC1=1.938M TC2=6.263U)
.MODEL DSEPI D (IS=10.03E-20 EG=1.206 XTI=1.5 CJO=0.07F VJ=0.68 M=0.39 BV=60)
.END

**** 08/26/125 16:08:09 ****** NT PSpice 8.0 (July 1997) ****** ID# 74155 ****

 FB2/DEFAULT    BIAS (VER. 22)   * RULES NPN:AE PNP:AE RP:AE


 ****     Diode MODEL PARAMETERS


******************************************************************************




               DTISN1          DSEPI           
          IS   51.300000E-15  100.300000E-21 
           N    1.18                         
         IKF    6.000000E-03                 
          BV    6.2            60            
         NBV     .5                          
          RS   40                            
         CJO  928.000000E-15   70.000000E-18 
          VJ     .68             .68         
           M     .43             .39         
          FC     .7                          
          EG    1.186           1.206        
         XTI    3.2             1.5          
        TBV1  350.000000E-06                 


**** 08/26/125 16:08:09 ****** NT PSpice 8.0 (July 1997) ****** ID# 74155 ****

 FB2/DEFAULT    BIAS (VER. 22)   * RULES NPN:AE PNP:AE RP:AE


 ****     BJT MODEL PARAMETERS


******************************************************************************




               N1              P1              N8              N4              
               NPN             LPNP            NPN             NPN             
          IS   36.700000E-18  383.000000E-18  294.000000E-18  147.000000E-18 
          EG    1.186           1.186           1.186           1.186        
          BF  110             250             110             110            
          NF    1               1               1               1            
         VAF  250             100             250             250            
         IKF    6.000000E-03   80.000000E-06     .048            .024        
         ISE    6.000000E-18  500.000000E-18   48.000000E-18   24.000000E-18 
          NE    1.18            1.46            1.18            1.18         
          BR   10              37              10              10            
          NR    1               1               1               1            
         VAR   30              30              30              30            
         IKR                   90.000000E-06                                 
          NC                    1.47                                         
          RB  280             312              45              90            
         RBM   35                               6              11            
         IRB   30.000000E-06                  240.000000E-06  120.000000E-06 
          RE    2.4            40                .3              .6          
          RC  413             550             137             196            
         CJE  137.000000E-15   44.000000E-15    1.100000E-12  488.000000E-15 
         VJE     .755            .58             .755            .755        
         MJE     .34             .27             .34             .34         
         CJC  103.000000E-15  434.000000E-15  324.000000E-15  202.000000E-15 
         VJC     .5              .59             .5              .5          
         MJC     .305            .375            .305            .305        
        XCJC     .222           0                .222            .222        
         CJS  485.000000E-15    1.000000E-12  900.000000E-15  730.000000E-15 
         VJS     .655            .69             .655            .655        
         MJS     .396            .42             .396            .396        
          FC     .7              .7              .7              .7          
          TF  440.000000E-12   14.000000E-09  440.000000E-12  440.000000E-12 
         XTF   38                .5            38              38            
         VTF    2.9              .6             2.9             2.9          
         ITF     .025           1.000000E-06     .2              .1          
          TR   44.000000E-09   42.000000E-09   44.000000E-09   44.000000E-09 
         XTB     .5             -.4              .5              .5          
         XTI    3.2            10.7             3.2             3.2          
        TRC1    3.000000E-03                    3.000000E-03    3.000000E-03 


               N2              S1              P4              
               NPN             PNP             LPNP            
          IS   73.400000E-18  367.000000E-18    1.530000E-15 
          EG    1.186           1.186           1.186        
          BF  110             250             250            
          NF    1               1               1            
         VAF  250             120             100            
         IKF     .012          40.000000E-06  320.000000E-06 
         ISE   12.000000E-18  230.000000E-18    2.000000E-15 
          NE    1.18            1.45            1.46         
          BR   10                .7            37            
          NR    1               1               1            
         VAR   30              25              30            
         IKR                  200.000000E-06  360.000000E-06 
         ISC                    8.000000E-15                 
          NC                    1.35            1.47         
          RB  140             100             160            
         RBM   18                                            
         IRB   60.000000E-06                                 
          RE    1.2            40               6.4          
          RC  258              60             335            
         CJE  274.000000E-15   50.000000E-15  184.000000E-15 
         VJE     .755            .9              .58         
         MJE     .34                             .27         
         CJC  154.000000E-15  328.000000E-15  725.000000E-15 
         VJC     .5              .63             .59         
         MJC     .305            .41             .375        
        XCJC     .222            .024           0            
         CJS  619.000000E-15                    1.600000E-12 
         VJS     .655                            .69         
         MJS     .396                            .42         
          FC     .7              .7              .7          
          TF  440.000000E-12   16.000000E-09   14.000000E-09 
         XTF   38                .5              .5          
         VTF    2.9              .8              .6          
         ITF     .05                            4.000000E-06 
          TR   44.000000E-09    1.600000E-06   42.000000E-09 
         XTB     .5             -.5             -.4          
         XTI    3.2             2.7            10.7          
        TRC1    3.000000E-03                                 


**** 08/26/125 16:08:09 ****** NT PSpice 8.0 (July 1997) ****** ID# 74155 ****

 FB2/DEFAULT    BIAS (VER. 22)   * RULES NPN:AE PNP:AE RP:AE


 ****     Resistor MODEL PARAMETERS


******************************************************************************




               RPN             RP              
           R    1               1            
         TC1    5.155000E-03    1.938000E-03 
         TC2    9.310000E-06    6.263000E-06 


**** 08/26/125 16:08:09 ****** NT PSpice 8.0 (July 1997) ****** ID# 74155 ****

 FB2/DEFAULT    BIAS (VER. 22)   * RULES NPN:AE PNP:AE RP:AE


 ****     SMALL SIGNAL BIAS SOLUTION       TEMPERATURE =   27.000 DEG C


******************************************************************************



 NODE   VOLTAGE     NODE   VOLTAGE     NODE   VOLTAGE     NODE   VOLTAGE


(   VH) 3.82326381 (  201) 3.17896770 (  202) 1.35793540 (  203) .67896770      

(  204) 4.94324773 (  205) 1.81051378 (  206) 3.65182402 (  207) 1.75713185     

(  208) .69932361  (  209) 4.29762339 (  210) 4.94337812 (  211) 3.21504585     

(  212) 4.29769437 (  213) 2.51468735 (  214) 4.94342346 (  215) 2.45646096     

(  216) 4.94296831 (  218) 4.94296831 (  219) 2.51458934 (  220) 4.94296831     

(  221) 4.33137961 (  222) 3.10594440 (  223) 2.40740933 (  224) 1.76313114     

(  IN3) 3.02872784 (  IP1) 2.02541743 (  IP4) 2.02541743 (  IP5) 2.02541743     

(  SUB) 0.00000000 (  VBG) 2.40718544 (  VCC) 5.00000000 ( IN31) 2.94871434     

(XC201.NVS) 3.21504585                




    VOLTAGE SOURCE CURRENTS
    NAME         CURRENT

    VCC         -3.282E-04
    VSUB         0.000E+00
    XC201.VSENSE1  -3.229E-13

    TOTAL POWER DISSIPATION   1.64E-03  WATTS


**** 08/26/125 16:08:09 ****** NT PSpice 8.0 (July 1997) ****** ID# 74155 ****

 FB2/DEFAULT    BIAS (VER. 22)   * RULES NPN:AE PNP:AE RP:AE


 ****     OPERATING POINT INFORMATION      TEMPERATURE =   27.000 DEG C


******************************************************************************






**** DIODES


NAME         D201        D202        XC201.DSUB
MODEL        DTISN1      DTISN1      DSEPI     
ID          -2.35E-12   -2.09E-12   -3.23E-13 
VD          -5.00E+00   -2.41E+00   -3.22E+00 
REQ          1.00E+13    1.00E+13    1.00E+13 
CAP          1.34E-11    1.74E-11    4.96E-13 


**** BIPOLAR JUNCTION TRANSISTORS


NAME         Q201        Q202        Q203        Q204        Q205      
MODEL        N1          N1          N1          P1          N8        
IB           1.11E-07    1.11E-07   -2.33E-14   -1.16E-07    2.62E-07 
IC           8.99E-06    8.99E-06    2.17E-13   -2.02E-05    2.03E-05 
VBE          6.79E-01    6.79E-01   -3.99E-01   -6.46E-01    6.46E-01 
VBC          0.00E+00    0.00E+00   -2.29E+00    6.46E-01   -1.20E+00 
VCE          6.79E-01    6.79E-01    1.89E+00   -1.29E+00    1.84E+00 
BETADC       8.08E+01    8.08E+01   -9.29E+00    1.74E+02    7.73E+01 
GM           3.47E-04    3.47E-04   -7.07E-15    6.46E-04    7.83E-04 
RPI          2.42E+05    2.42E+05    1.10E+15    2.32E+05    1.03E+05 
RX           2.78E+02    2.78E+02    2.80E+02    3.12E+02    4.49E+01 
RO           2.72E+07    2.72E+07    9.71E+12    4.89E+06    1.21E+07 
CBE          4.06E-13    4.06E-13    1.19E-13    1.13E-11    2.29E-12 
CBC          2.29E-14    2.29E-14    1.35E-14    4.20E-21    4.96E-14 
CJS          3.11E-13    3.66E-13    2.30E-13    4.36E-13    4.27E-13 
BETAAC       8.38E+01    8.38E+01   -7.78E+00    1.50E+02    8.07E+01 
CBX          8.03E-14    8.03E-14    4.74E-14    3.30E-13    1.74E-13 
FT           1.09E+08    1.09E+08   -6.27E-03    8.82E+06    4.95E+07 



NAME         Q206        Q207        Q208        Q209        Q210      
MODEL        N4          P1          P1          N1          P1        
IB           7.11E-07   -1.16E-07   -1.17E-07    2.37E-07   -1.16E-07 
IC           5.90E-05   -2.01E-05   -2.02E-05    1.97E-05   -2.01E-05 
VBE          6.99E-01   -6.46E-01   -6.46E-01    6.99E-01   -6.46E-01 
VBC          0.00E+00    0.00E+00    4.37E-01   -7.59E-01    0.00E+00 
VCE          6.99E-01   -6.46E-01   -1.08E+00    1.46E+00   -6.46E-01 
BETADC       8.30E+01    1.73E+02    1.74E+02    8.32E+01    1.73E+02 
GM           2.27E-03    6.45E-04    6.48E-04    7.59E-04    6.44E-04 
RPI          3.76E+04    2.30E+05    2.30E+05    1.13E+05    2.31E+05 
RX           1.18E+02    3.12E+02    3.12E+02    2.76E+02    3.12E+02 
RO           4.14E+06    4.87E+06    4.86E+06    1.24E+07    4.87E+06 
CBE          1.69E-12    1.37E-11    1.20E-11    5.93E-13    1.37E-11 
CBC          3.40E-14    5.15E-21    4.20E-21    1.73E-14    5.15E-21 
CJS          4.13E-13    4.36E-13    4.62E-13    2.40E-13    4.36E-13 
BETAAC       8.55E+01    1.49E+02    1.49E+02    8.58E+01    1.49E+02 
CBX          1.19E-13    4.37E-13    3.54E-13    6.06E-14    4.37E-13 
FT           1.96E+08    7.24E+06    8.38E+06    1.80E+08    7.24E+06 



NAME         Q211        Q212        Q213        Q214        Q215      
MODEL        N1          P1          N1          P1          N1        
IB           2.46E-07   -1.14E-07    2.37E-07   -1.14E-07    2.47E-07 
IC           2.05E-05   -2.03E-05    1.97E-05   -2.03E-05    2.05E-05 
VBE          7.00E-01   -6.45E-01    6.99E-01   -6.45E-01    7.00E-01 
VBC         -1.08E+00    2.27E+00   -5.72E-01    2.27E+00    2.66E-01 
VCE          1.78E+00   -2.92E+00    1.27E+00   -2.92E+00    4.34E-01 
BETADC       8.34E+01    1.77E+02    8.31E+01    1.77E+02    8.30E+01 
GM           7.91E-04    6.51E-04    7.59E-04    6.51E-04    7.90E-04 
RPI          1.09E+05    2.35E+05    1.13E+05    2.35E+05    1.08E+05 
RX           2.75E+02    3.12E+02    2.76E+02    3.12E+02    2.75E+02 
RO           1.19E+07    4.94E+06    1.24E+07    4.94E+06    1.19E+07 
CBE          6.08E-13    9.53E-12    5.93E-13    9.53E-12    6.07E-13 
CBC          1.61E-14    4.20E-21    1.82E-14    4.20E-21    2.92E-14 
CJS          2.18E-13    4.36E-13    2.45E-13    4.36E-13    2.47E-13 
BETAAC       8.60E+01    1.53E+02    8.57E+01    1.53E+02    8.55E+01 
CBX          5.65E-14    2.40E-13    6.36E-14    2.40E-13    1.02E-13 
FT           1.85E+08    1.06E+07    1.79E+08    1.06E+07    1.70E+08 



NAME         Q216        Q217        Q218        Q219        Q220      
MODEL        P1          P1          N2          S1          P1        
IB          -1.14E-07   -2.66E-07    4.74E-07   -1.22E-07   -2.66E-07 
IC          -2.03E-05   -3.94E-05    3.99E-05   -1.92E-05   -3.96E-05 
VBE         -6.45E-01   -6.69E-01    6.99E-01   -6.49E-01   -6.69E-01 
VBC          2.27E+00    0.00E+00   -3.63E+00    2.46E+00    5.08E-01 
VCE         -2.92E+00   -6.69E-01    4.33E+00   -3.11E+00   -1.18E+00 
BETADC       1.77E+02    1.48E+02    8.42E+01    1.57E+02    1.49E+02 
GM           6.51E-04    1.14E-03    1.54E-03    5.59E-04    1.14E-03 
RPI          2.35E+05    1.00E+05    5.65E+04    2.16E+05    1.00E+05 
RX           3.12E+02    3.12E+02    1.38E+02    1.00E+02    3.12E+02 
RO           4.94E+06    2.48E+06    6.21E+06    6.21E+06    2.48E+06 
CBE          9.53E-12    2.43E-11    1.19E-12    9.56E-12    2.07E-11 
CBC          4.20E-21    5.63E-21    1.80E-14    4.10E-15    4.20E-21 
CJS          4.36E-13    4.34E-13    2.77E-13    0.00E+00    4.34E-13 
BETAAC       1.53E+02    1.14E+02    8.68E+01    1.21E+02    1.15E+02 
CBX          2.40E-13    4.40E-13    6.30E-14    1.67E-13    3.46E-13 
FT           1.06E+07    7.33E+06    1.92E+08    9.15E+06    8.65E+06 



NAME         Q221        Q222        Q223        Q224        Q225      
MODEL        N1          N1          N1          P1          N4        
IB           2.37E-07    4.63E-07    2.30E-07   -1.10E-07    9.29E-07 
IC           1.97E-05    3.91E-05    1.91E-05   -1.92E-05    7.76E-05 
VBE          6.99E-01    7.17E-01    6.99E-01   -6.44E-01    6.99E-01 
VBC         -1.06E+00    0.00E+00    0.00E+00    0.00E+00   -1.89E+00 
VCE          1.76E+00    7.17E-01    6.99E-01   -6.44E-01    2.59E+00 
BETADC       8.33E+01    8.45E+01    8.29E+01    1.74E+02    8.35E+01 
GM           7.60E-04    1.50E-03    7.34E-04    6.19E-04    2.99E-03 
RPI          1.13E+05    5.77E+04    1.16E+05    2.43E+05    2.88E+04 
RX           2.76E+02    2.72E+02    2.76E+02    3.12E+02    8.86E+01 
RO           1.24E+07    6.24E+06    1.28E+07    5.10E+06    3.17E+06 
CBE          5.94E-13    9.25E-13    5.82E-13    1.32E-11    2.24E-12 
CBC          1.62E-14    2.31E-14    2.30E-14    5.13E-21    2.79E-14 
CJS          2.90E-13    2.27E-13    2.43E-13    5.87E-13    3.11E-13 
BETAAC       8.59E+01    8.66E+01    8.55E+01    1.51E+02    8.62E+01 
CBX          5.67E-14    8.09E-14    8.05E-14    4.37E-13    9.77E-14 
FT           1.82E+08    2.32E+08    1.70E+08    7.23E+06    2.01E+08 



NAME         Q226      
MODEL        P4        
IB          -4.41E-07 
IC          -7.81E-05 
VBE         -6.44E-01 
VBC          1.76E+00 
VCE         -2.41E+00 
BETADC       1.77E+02 
GM           2.52E-03 
RPI          6.09E+04 
RX           1.60E+02 
RO           1.28E+06 
CBE          3.80E-11 
CBC          4.20E-21 
