#H
SOURCE='PSPICE' VERSION='PSpice 8.0 (July 1997)'
TITLE='* Block  : Transconduttore'
SUBTITLE=''
TIME='13:36:27' DATE='08/26/125' TEMPERATURE='2.700E01'
ANALYSIS='AC Sweep' SERIALNO='135568'
ALLVALUES='YES' COMPLEXVALUES='YES' NODES='45'
SWEEPVAR='Frequency' SWEEPMODE='LOG'
XBEGIN='1.000E04' XEND='1.000E09'
FORMAT='0 R_VOLTSorAMPS;EFLOAT / I_VOLTSorAMPS;EFLOAT : NODEorBRANCH;NODE  '
DGTLDATA='NO' 
#N 
'V(1)';'VB(X1.QQ0)';'V1(V1)' 'V(2)';'VB(X1.QQ1)';'V2(V1)';'V1(Voff)' 'V(X1.NET15)';'VC(X1.QQ3)';'VC(X1.QQ4)';'V2(X1.RR10)';'V2(X1.RR11)';
'V1(X1.VV5)' 'V(X1.NET7)';'VB(X1.QQ3)';'VB(X1.QQ4)';'V1(X1.VI3)' 'V(X1.NET9)';'V1(X1.II0)';'VE(X1.QQ0)';'V1(X1.RREE)' 'V(X1.NET11)';
'V1(X1.II1)';'VE(X1.QQ1)';'V2(X1.RREE)' 'V(X1.NET13)';'V1(X1.II2)';'VE(X1.QQ5)';'VE(X1.QQ12)' 'V(X1.NET21)';'VE(X1.QQ3)';'VC(X1.QQ0)';
'VB(X1.QQ12)' 'V(X1.NET18)';'VC(X1.QQ1)';'VE(X1.QQ4)';'VB(X1.QQ5)' 'V(4)';'VC(X1.QQ5)';'V1(X1.RR10)' 'V(3)';'VC(X1.QQ12)';'V1(X1.RR11)' 
'I(X1.II0)' 'I(X1.II1)' 'I(X1.II2)' 'I(X1.RREE)' 'I(X1.RR10)' 'I(X1.RR11)' 'I(V1)' 'I(Voff)' 'I(X1.VV5)' 'I(X1.VI3)' 'IC(X1.QQ3)' 'IB(X1.QQ3)' 
'IE(X1.QQ3)' 'IS(X1.QQ3)' 'IC(X1.QQ1)' 'IB(X1.QQ1)' 'IE(X1.QQ1)' 'IS(X1.QQ1)' 'IC(X1.QQ0)' 'IB(X1.QQ0)' 'IE(X1.QQ0)' 'IS(X1.QQ0)' 
'IC(X1.QQ4)' 'IB(X1.QQ4)' 'IE(X1.QQ4)' 'IS(X1.QQ4)' 'IC(X1.QQ5)' 'IB(X1.QQ5)' 'IE(X1.QQ5)' 'IS(X1.QQ5)' 'IC(X1.QQ12)' 'IB(X1.QQ12)' 
'IE(X1.QQ12)' 'IS(X1.QQ12)' 
#C 1.0000000000E04 45
1.000E00/0.000E00:1 0.000E00/0.000E00:2 0.000E00/0.000E00:3 0.000E00/0.000E00:4 5.605E-01/-5.784E-08:5 4.386E-01/3.961E-08:6 
8.933E-06/2.438E-08:7 -4.237E-01/1.404E-06:8 4.237E-01/-1.356E-06:9 -1.567E01/1.337E-04:A 1.567E01/-1.337E-04:B 
0.000E00/0.000E00:C 0.000E00/0.000E00:D 0.000E00/0.000E00:E 6.093E-03/-4.872E-09:F -5.595E-03/4.775E-08:10 5.595E-03/-4.775E-08:11 
-9.909E-05/-4.967E-09:12 -2.489E-07/-6.794E-10:13 2.450E-07/6.684E-10:14 3.953E-09/1.094E-11:15 5.805E-03/-2.829E-08:16 
9.366E-05/3.246E-09:17 -5.898E-03/2.456E-08:18 2.359E-15/4.840E-10:19 -5.994E-03/9.935E-09:1A -9.884E-05/-4.288E-09:1B 
6.093E-03/-4.872E-09:1C -1.572E-15/-7.746E-10:1D 5.994E-03/-1.061E-08:1E 9.909E-05/4.967E-09:1F -6.093E-03/4.872E-09:20 
1.660E-15/7.745E-10:21 -5.805E-03/2.762E-08:22 -9.366E-05/-3.257E-09:23 5.898E-03/-2.388E-08:24 -2.303E-15/-4.840E-10:25 
5.595E-03/-4.775E-08:26 9.600E-05/1.395E-08:27 -5.691E-03/2.643E-08:28 6.288E-14/7.369E-09:29 -5.595E-03/4.775E-08:2A 
-9.600E-05/-1.395E-08:2B 5.691E-03/-2.643E-08:2C -6.288E-14/-7.369E-09:2D 
#C 1.0230597298E04 45
1.000E00/0.000E00:1 0.000E00/0.000E00:2 0.000E00/0.000E00:3 0.000E00/0.000E00:4 5.605E-01/-5.917E-08:5 4.386E-01/4.052E-08:6 
8.933E-06/2.495E-08:7 -4.237E-01/1.437E-06:8 4.237E-01/-1.387E-06:9 -1.567E01/1.368E-04:A 1.567E01/-1.368E-04:B 
0.000E00/0.000E00:C 0.000E00/0.000E00:D 0.000E00/0.000E00:E 6.093E-03/-4.985E-09:F -5.595E-03/4.885E-08:10 5.595E-03/-4.885E-08:11 
-9.909E-05/-5.082E-09:12 -2.489E-07/-6.950E-10:13 2.450E-07/6.838E-10:14 3.953E-09/1.119E-11:15 5.805E-03/-2.894E-08:16 
9.366E-05/3.321E-09:17 -5.898E-03/2.513E-08:18 2.469E-15/4.951E-10:19 -5.994E-03/1.016E-08:1A -9.884E-05/-4.387E-09:1B 
6.093E-03/-4.985E-09:1C -1.646E-15/-7.924E-10:1D 5.994E-03/-1.086E-08:1E 9.909E-05/5.082E-09:1F -6.093E-03/4.985E-09:20 
1.738E-15/7.924E-10:21 -5.805E-03/2.826E-08:22 -9.366E-05/-3.332E-09:23 5.898E-03/-2.443E-08:24 -2.410E-15/-4.952E-10:25 
5.595E-03/-4.885E-08:26 9.600E-05/1.427E-08:27 -5.691E-03/2.704E-08:28 6.582E-14/7.539E-09:29 -5.595E-03/4.885E-08:2A 
-9.600E-05/-1.427E-08:2B 5.691E-03/-2.704E-08:2C -6.582E-14/-7.539E-09:2D 
#C 1.0466512108E04 45
1.000E00/0.000E00:1 0.000E00/0.000E00:2 0.000E00/0.000E00:3 0.000E00/0.000E00:4 5.605E-01/-6.054E-08:5 4.386E-01/4.146E-08:6 
8.933E-06/2.552E-08:7 -4.237E-01/1.470E-06:8 4.237E-01/-1.419E-06:9 -1.567E01/1.399E-04:A 1.567E01/-1.399E-04:B 
0.000E00/0.000E00:C 0.000E00/0.000E00:D 0.000E00/0.000E00:E 6.093E-03/-5.100E-09:F -5.595E-03/4.998E-08:10 5.595E-03/-4.998E-08:11 
-9.909E-05/-5.199E-09:12 -2.489E-07/-7.110E-10:13 2.450E-07/6.995E-10:14 3.953E-09/1.145E-11:15 5.805E-03/-2.961E-08:16 
9.366E-05/3.398E-09:17 -5.898E-03/2.571E-08:18 2.584E-15/5.066E-10:19 -5.994E-03/1.040E-08:1A -9.884E-05/-4.488E-09:1B 
6.093E-03/-5.100E-09:1C -1.722E-15/-8.107E-10:1D 5.994E-03/-1.111E-08:1E 9.909E-05/5.199E-09:1F -6.093E-03/5.100E-09:20 
1.819E-15/8.107E-10:21 -5.805E-03/2.891E-08:22 -9.366E-05/-3.409E-09:23 5.898E-03/-2.499E-08:24 -2.523E-15/-5.066E-10:25 
5.595E-03/-4.998E-08:26 9.600E-05/1.460E-08:27 -5.691E-03/2.767E-08:28 6.889E-14/7.713E-09:29 -5.595E-03/4.998E-08:2A 
-9.600E-05/-1.460E-08:2B 5.691E-03/-2.767E-08:2C -6.889E-14/-7.713E-09:2D 
#C 1.0707867050E04 45
1.000E00/0.000E00:1 0.000E00/0.000E00:2 0.000E00/0.000E00:3 0.000E00/0.000E00:4 5.605E-01/-6.193E-08:5 4.386E-01/4.241E-08:6 
8.933E-06/2.611E-08:7 -4.237E-01/1.504E-06:8 4.237E-01/-1.452E-06:9 -1.567E01/1.432E-04:A 1.567E01/-1.432E-04:B 
0.000E00/0.000E00:C 0.000E00/0.000E00:D 0.000E00/0.000E00:E 6.093E-03/-5.217E-09:F -5.595E-03/5.113E-08:10 5.595E-03/-5.113E-08:11 
-9.909E-05/-5.319E-09:12 -2.489E-07/-7.274E-10:13 2.450E-07/7.157E-10:14 3.953E-09/1.171E-11:15 5.805E-03/-3.029E-08:16 
9.366E-05/3.476E-09:17 -5.898E-03/2.630E-08:18 2.705E-15/5.182E-10:19 -5.994E-03/1.064E-08:1A -9.884E-05/-4.591E-09:1B 
6.093E-03/-5.217E-09:1C -1.803E-15/-8.294E-10:1D 5.994E-03/-1.137E-08:1E 9.909E-05/5.319E-09:1F -6.093E-03/5.217E-09:20 
1.904E-15/8.294E-10:21 -5.805E-03/2.958E-08:22 -9.366E-05/-3.488E-09:23 5.898E-03/-2.557E-08:24 -2.641E-15/-5.183E-10:25 
5.595E-03/-5.113E-08:26 9.600E-05/1.493E-08:27 -5.691E-03/2.831E-08:28 7.210E-14/7.891E-09:29 -5.595E-03/5.113E-08:2A 
-9.600E-05/-1.493E-08:2B 5.691E-03/-2.831E-08:2C -7.210E-14/-7.891E-09:2D 
#C 1.0954787571E04 45
1.000E00/0.000E00:1 0.000E00/0.000E00:2 0.000E00/0.000E00:3 0.000E00/0.000E00:4 5.605E-01/-6.336E-08:5 4.386E-01/4.339E-08:6 
8.933E-06/2.671E-08:7 -4.237E-01/1.539E-06:8 4.237E-01/-1.485E-06:9 -1.567E01/1.465E-04:A 1.567E01/-1.465E-04:B 
0.000E00/0.000E00:C 0.000E00/0.000E00:D 0.000E00/0.000E00:E 6.093E-03/-5.338E-09:F -5.595E-03/5.231E-08:10 5.595E-03/-5.231E-08:11 
-9.909E-05/-5.441E-09:12 -2.489E-07/-7.442E-10:13 2.450E-07/7.322E-10:14 3.953E-09/1.198E-11:15 5.805E-03/-3.099E-08:16 
9.366E-05/3.556E-09:17 -5.898E-03/2.690E-08:18 2.831E-15/5.302E-10:19 -5.994E-03/1.088E-08:1A -9.884E-05/-4.697E-09:1B 
6.093E-03/-5.338E-09:1C -1.887E-15/-8.485E-10:1D 5.994E-03/-1.163E-08:1E 9.909E-05/5.441E-09:1F -6.093E-03/5.338E-09:20 
1.992E-15/8.485E-10:21 -5.805E-03/3.026E-08:22 -9.366E-05/-3.568E-09:23 5.898E-03/-2.616E-08:24 -2.764E-15/-5.302E-10:25 
5.595E-03/-5.231E-08:26 9.600E-05/1.528E-08:27 -5.691E-03/2.896E-08:28 7.547E-14/8.072E-09:29 -5.595E-03/5.231E-08:2A 
-9.600E-05/-1.528E-08:2B 5.691E-03/-2.896E-08:2C -7.547E-14/-8.072E-09:2D 
#C 1.1207402013E04 45
1.000E00/0.000E00:1 0.000E00/0.000E00:2 0.000E00/0.000E00:3 0.000E00/0.000E00:4 5.605E-01/-6.482E-08:5 4.386E-01/4.439E-08:6 
8.933E-06/2.733E-08:7 -4.237E-01/1.574E-06:8 4.237E-01/-1.519E-06:9 -1.567E01/1.498E-04:A 1.567E01/-1.498E-04:B 
0.000E00/0.000E00:C 0.000E00/0.000E00:D 0.000E00/0.000E00:E 6.093E-03/-5.461E-09:F -5.595E-03/5.351E-08:10 5.595E-03/-5.351E-08:11 
-9.909E-05/-5.567E-09:12 -2.489E-07/-7.614E-10:13 2.450E-07/7.491E-10:14 3.953E-09/1.226E-11:15 5.805E-03/-3.171E-08:16 
9.366E-05/3.638E-09:17 -5.898E-03/2.752E-08:18 2.963E-15/5.424E-10:19 -5.994E-03/1.113E-08:1A -9.884E-05/-4.805E-09:1B 
6.093E-03/-5.461E-09:1C -1.975E-15/-8.681E-10:1D 5.994E-03/-1.190E-08:1E 9.909E-05/5.567E-09:1F -6.093E-03/5.461E-09:20 
2.085E-15/8.681E-10:21 -5.805E-03/3.096E-08:22 -9.366E-05/-3.651E-09:23 5.898E-03/-2.676E-08:24 -2.893E-15/-5.424E-10:25 
5.595E-03/-5.351E-08:26 9.600E-05/1.563E-08:27 -5.691E-03/2.963E-08:28 7.899E-14/8.259E-09:29 -5.595E-03/5.351E-08:2A 
-9.600E-05/-1.563E-08:2B 5.691E-03/-2.963E-08:2C -7.899E-14/-8.259E-09:2D 
#C 1.1465841676E04 45
1.000E00/0.000E00:1 0.000E00/0.000E00:2 0.000E00/0.000E00:3 0.000E00/0.000E00:4 5.605E-01/-6.632E-08:5 4.386E-01/4.541E-08:6 
8.933E-06/2.796E-08:7 -4.237E-01/1.610E-06:8 4.237E-01/-1.554E-06:9 -1.567E01/1.533E-04:A 1.567E01/-1.533E-04:B 
0.000E00/0.000E00:C 0.000E00/0.000E00:D 0.000E00/0.000E00:E 6.093E-03/-5.587E-09:F -5.595E-03/5.475E-08:10 5.595E-03/-5.475E-08:11 
-9.909E-05/-5.695E-09:12 -2.489E-07/-7.789E-10:13 2.450E-07/7.663E-10:14 3.953E-09/1.254E-11:15 5.805E-03/-3.244E-08:16 
9.366E-05/3.722E-09:17 -5.898E-03/2.816E-08:18 3.101E-15/5.549E-10:19 -5.994E-03/1.139E-08:1A -9.884E-05/-4.916E-09:1B 
6.093E-03/-5.587E-09:1C -2.067E-15/-8.881E-10:1D 5.994E-03/-1.217E-08:1E 9.909E-05/5.695E-09:1F -6.093E-03/5.587E-09:20 
2.183E-15/8.881E-10:21 -5.805E-03/3.167E-08:22 -9.366E-05/-3.735E-09:23 5.898E-03/-2.738E-08:24 -3.028E-15/-5.549E-10:25 
5.595E-03/-5.475E-08:26 9.600E-05/1.599E-08:27 -5.691E-03/3.031E-08:28 8.267E-14/8.449E-09:29 -5.595E-03/5.475E-08:2A 
-9.600E-05/-1.599E-08:2B 5.691E-03/-3.031E-08:2C -8.267E-14/-8.449E-09:2D 
#C 1.1730240887E04 45
1.000E00/0.000E00:1 0.000E00/0.000E00:2 0.000E00/0.000E00:3 0.000E00/0.000E00:4 5.605E-01/-6.785E-08:5 4.386E-01/4.646E-08:6 
8.933E-06/2.860E-08:7 -4.237E-01/1.647E-06:8 4.237E-01/-1.590E-06:9 -1.567E01/1.568E-04:A 1.567E01/-1.568E-04:B 
0.000E00/0.000E00:C 0.000E00/0.000E00:D 0.000E00/0.000E00:E 6.093E-03/-5.715E-09:F -5.595E-03/5.601E-08:10 5.595E-03/-5.601E-08:11 
-9.909E-05/-5.826E-09:12 -2.489E-07/-7.969E-10:13 2.450E-07/7.840E-10:14 3.953E-09/1.283E-11:15 5.805E-03/-3.318E-08:16 
9.366E-05/3.808E-09:17 -5.898E-03/2.881E-08:18 3.246E-15/5.677E-10:19 -5.994E-03/1.165E-08:1A -9.884E-05/-5.030E-09:1B 
6.093E-03/-5.715E-09:1C -2.163E-15/-9.086E-10:1D 5.994E-03/-1.245E-08:1E 9.909E-05/5.826E-09:1F -6.093E-03/5.715E-09:20 
2.285E-15/9.086E-10:21 -5.805E-03/3.240E-08:22 -9.366E-05/-3.821E-09:23 5.898E-03/-2.801E-08:24 -3.169E-15/-5.677E-10:25 
5.595E-03/-5.601E-08:26 9.600E-05/1.636E-08:27 -5.691E-03/3.101E-08:28 8.653E-14/8.644E-09:29 -5.595E-03/5.601E-08:2A 
-9.600E-05/-1.636E-08:2B 5.691E-03/-3.101E-08:2C -8.653E-14/-8.644E-09:2D 
#C 1.2000737073E04 45
1.000E00/0.000E00:1 0.000E00/0.000E00:2 0.000E00/0.000E00:3 0.000E00/0.000E00:4 5.605E-01/-6.941E-08:5 4.386E-01/4.753E-08:6 
8.933E-06/2.926E-08:7 -4.237E-01/1.685E-06:8 4.237E-01/-1.627E-06:9 -1.567E01/1.604E-04:A 1.567E01/-1.604E-04:B 
0.000E00/0.000E00:C 0.000E00/0.000E00:D 0.000E00/0.000E00:E 6.093E-03/-5.847E-09:F -5.595E-03/5.730E-08:10 5.595E-03/-5.730E-08:11 
-9.909E-05/-5.961E-09:12 -2.489E-07/-8.153E-10:13 2.450E-07/8.021E-10:14 3.953E-09/1.313E-11:15 5.805E-03/-3.395E-08:16 
9.366E-05/3.896E-09:17 -5.898E-03/2.947E-08:18 3.397E-15/5.808E-10:19 -5.994E-03/1.192E-08:1A -9.884E-05/-5.146E-09:1B 
6.093E-03/-5.847E-09:1C -2.264E-15/-9.295E-10:1D 5.994E-03/-1.274E-08:1E 9.909E-05/5.961E-09:1F -6.093E-03/5.847E-09:20 
2.391E-15/9.295E-10:21 -5.805E-03/3.315E-08:22 -9.366E-05/-3.909E-09:23 5.898E-03/-2.866E-08:24 -3.317E-15/-5.808E-10:25 
5.595E-03/-5.730E-08:26 9.600E-05/1.674E-08:27 -5.691E-03/3.172E-08:28 9.056E-14/8.843E-09:29 -5.595E-03/5.730E-08:2A 
-9.600E-05/-1.674E-08:2B 5.691E-03/-3.172E-08:2C -9.056E-14/-8.843E-09:2D 
#C 1.2277470828E04 45
1.000E00/0.000E00:1 0.000E00/0.000E00:2 0.000E00/0.000E00:3 0.000E00/0.000E00:4 5.605E-01/-7.101E-08:5 4.386E-01/4.863E-08:6 
8.933E-06/2.994E-08:7 -4.237E-01/1.724E-06:8 4.237E-01/-1.664E-06:9 -1.567E01/1.641E-04:A 1.567E01/-1.641E-04:B 
0.000E00/0.000E00:C 0.000E00/0.000E00:D 0.000E00/0.000E00:E 6.093E-03/-5.982E-09:F -5.595E-03/5.862E-08:10 5.595E-03/-5.862E-08:11 
-9.909E-05/-6.098E-09:12 -2.489E-07/-8.341E-10:13 2.450E-07/8.206E-10:14 3.953E-09/1.343E-11:15 5.805E-03/-3.473E-08:16 
9.366E-05/3.986E-09:17 -5.898E-03/3.015E-08:18 3.556E-15/5.942E-10:19 -5.994E-03/1.220E-08:1A -9.884E-05/-5.264E-09:1B 
6.093E-03/-5.982E-09:1C -2.370E-15/-9.510E-10:1D 5.994E-03/-1.303E-08:1E 9.909E-05/6.098E-09:1F -6.093E-03/5.982E-09:20 
2.503E-15/9.509E-10:21 -5.805E-03/3.391E-08:22 -9.366E-05/-3.999E-09:23 5.898E-03/-2.932E-08:24 -3.472E-15/-5.942E-10:25 
5.595E-03/-5.862E-08:26 9.600E-05/1.712E-08:27 -5.691E-03/3.245E-08:28 9.479E-14/9.047E-09:29 -5.595E-03/5.862E-08:2A 
-9.600E-05/-1.712E-08:2B 5.691E-03/-3.245E-08:2C -9.479E-14/-9.047E-09:2D 
#C 1.2560585988E04 45
1.000E00/0.000E00:1 0.000E00/0.000E00:2 0.000E00/0.000E00:3 0.000E00/0.000E00:4 5.605E-01/-7.265E-08:5 4.386E-01/4.975E-08:6 
8.933E-06/3.063E-08:7 -4.237E-01/1.764E-06:8 4.237E-01/-1.703E-06:9 -1.567E01/1.679E-04:A 1.567E01/-1.679E-04:B 
0.000E00/0.000E00:C 0.000E00/0.000E00:D 0.000E00/0.000E00:E 6.093E-03/-6.120E-09:F -5.595E-03/5.998E-08:10 5.595E-03/-5.998E-08:11 
-9.909E-05/-6.239E-09:12 -2.489E-07/-8.533E-10:13 2.450E-07/8.395E-10:14 3.953E-09/1.374E-11:15 5.805E-03/-3.553E-08:16 
9.366E-05/4.078E-09:17 -5.898E-03/3.085E-08:18 3.721E-15/6.079E-10:19 -5.994E-03/1.248E-08:1A -9.884E-05/-5.386E-09:1B 
6.093E-03/-6.120E-09:1C -2.480E-15/-9.729E-10:1D 5.994E-03/-1.333E-08:1E 9.909E-05/6.239E-09:1F -6.093E-03/6.120E-09:20 
2.619E-15/9.729E-10:21 -5.805E-03/3.469E-08:22 -9.366E-05/-4.091E-09:23 5.898E-03/-3.000E-08:24 -3.633E-15/-6.079E-10:25 
5.595E-03/-5.998E-08:26 9.600E-05/1.752E-08:27 -5.691E-03/3.320E-08:28 9.921E-14/9.256E-09:29 -5.595E-03/5.998E-08:2A 
-9.600E-05/-1.752E-08:2B 5.691E-03/-3.320E-08:2C -9.921E-14/-9.256E-09:2D 
#C 1.2850229708E04 45
1.000E00/0.000E00:1 0.000E00/0.000E00:2 0.000E00/0.000E00:3 0.000E00/0.000E00:4 5.605E-01/-7.433E-08:5 4.386E-01/5.090E-08:6 
8.933E-06/3.133E-08:7 -4.237E-01/1.805E-06:8 4.237E-01/-1.742E-06:9 -1.567E01/1.718E-04:A 1.567E01/-1.718E-04:B 
0.000E00/0.000E00:C 0.000E00/0.000E00:D 0.000E00/0.000E00:E 6.093E-03/-6.261E-09:F -5.595E-03/6.136E-08:10 5.595E-03/-6.136E-08:11 
-9.909E-05/-6.383E-09:12 -2.489E-07/-8.730E-10:13 2.450E-07/8.589E-10:14 3.953E-09/1.406E-11:15 5.805E-03/-3.635E-08:16 
9.366E-05/4.172E-09:17 -5.898E-03/3.156E-08:18 3.895E-15/6.219E-10:19 -5.994E-03/1.277E-08:1A -9.884E-05/-5.510E-09:1B 
6.093E-03/-6.261E-09:1C -2.596E-15/-9.953E-10:1D 5.994E-03/-1.364E-08:1E 9.909E-05/6.383E-09:1F -6.093E-03/6.261E-09:20 
2.742E-15/9.953E-10:21 -5.805E-03/3.549E-08:22 -9.366E-05/-4.186E-09:23 5.898E-03/-3.069E-08:24 -3.803E-15/-6.219E-10:25 
5.595E-03/-6.136E-08:26 9.600E-05/1.792E-08:27 -5.691E-03/3.397E-08:28 1.038E-13/9.469E-09:29 -5.595E-03/6.136E-08:2A 
-9.600E-05/-1.792E-08:2B 5.691E-03/-3.397E-08:2C -1.038E-13/-9.469E-09:2D 
#C 1.3146552533E04 45
1.000E00/0.000E00:1 0.000E00/0.000E00:2 0.000E00/0.000E00:3 0.000E00/0.000E00:4 5.605E-01/-7.604E-08:5 4.386E-01/5.207E-08:6 
8.933E-06/3.206E-08:7 -4.237E-01/1.846E-06:8 4.237E-01/-1.782E-06:9 -1.567E01/1.758E-04:A 1.567E01/-1.758E-04:B 
0.000E00/0.000E00:C 0.000E00/0.000E00:D 0.000E00/0.000E00:E 6.093E-03/-6.406E-09:F -5.595E-03/6.277E-08:10 5.595E-03/-6.277E-08:11 
-9.909E-05/-6.530E-09:12 -2.489E-07/-8.931E-10:13 2.450E-07/8.787E-10:14 3.953E-09/1.438E-11:15 5.805E-03/-3.719E-08:16 
9.366E-05/4.268E-09:17 -5.898E-03/3.229E-08:18 4.077E-15/6.363E-10:19 -5.994E-03/1.306E-08:1A -9.884E-05/-5.637E-09:1B 
6.093E-03/-6.406E-09:1C -2.717E-15/-1.018E-09:1D 5.994E-03/-1.395E-08:1E 9.909E-05/6.530E-09:1F -6.093E-03/6.406E-09:20 
2.870E-15/1.018E-09:21 -5.805E-03/3.631E-08:22 -9.366E-05/-4.282E-09:23 5.898E-03/-3.139E-08:24 -3.980E-15/-6.363E-10:25 
5.595E-03/-6.277E-08:26 9.600E-05/1.833E-08:27 -5.691E-03/3.475E-08:28 1.087E-13/9.688E-09:29 -5.595E-03/6.277E-08:2A 
-9.600E-05/-1.833E-08:2B 5.691E-03/-3.475E-08:2C -1.087E-13/-9.688E-09:2D 
#C 1.3449708483E04 45
1.000E00/0.000E00:1 0.000E00/0.000E00:2 0.000E00/0.000E00:3 0.000E00/0.000E00:4 5.605E-01/-7.779E-08:5 4.386E-01/5.327E-08:6 
8.933E-06/3.280E-08:7 -4.237E-01/1.889E-06:8 4.237E-01/-1.823E-06:9 -1.567E01/1.798E-04:A 1.567E01/-1.798E-04:B 
0.000E00/0.000E00:C 0.000E00/0.000E00:D 0.000E00/0.000E00:E 6.093E-03/-6.553E-09:F -5.595E-03/6.422E-08:10 5.595E-03/-6.422E-08:11 
-9.909E-05/-6.681E-09:12 -2.489E-07/-9.137E-10:13 2.450E-07/8.989E-10:14 3.953E-09/1.471E-11:15 5.805E-03/-3.805E-08:16 
9.366E-05/4.366E-09:17 -5.898E-03/3.303E-08:18 4.267E-15/6.509E-10:19 -5.994E-03/1.336E-08:1A -9.884E-05/-5.767E-09:1B 
6.093E-03/-6.553E-09:1C -2.844E-15/-1.042E-09:1D 5.994E-03/-1.428E-08:1E 9.909E-05/6.681E-09:1F -6.093E-03/6.553E-09:20 
3.003E-15/1.042E-09:21 -5.805E-03/3.715E-08:22 -9.366E-05/-4.381E-09:23 5.898E-03/-3.212E-08:24 -4.166E-15/-6.510E-10:25 
5.595E-03/-6.422E-08:26 9.600E-05/1.876E-08:27 -5.691E-03/3.555E-08:28 1.138E-13/9.911E-09:29 -5.595E-03/6.422E-08:2A 
-9.600E-05/-1.876E-08:2B 5.691E-03/-3.555E-08:2C -1.138E-13/-9.911E-09:2D 
#C 1.3759855127E04 45
1.000E00/0.000E00:1 0.000E00/0.000E00:2 0.000E00/0.000E00:3 0.000E00/0.000E00:4 5.605E-01/-7.959E-08:5 4.386E-01/5.450E-08:6 
8.933E-06/3.355E-08:7 -4.237E-01/1.932E-06:8 4.237E-01/-1.865E-06:9 -1.567E01/1.840E-04:A 1.567E01/-1.840E-04:B 
0.000E00/0.000E00:C 0.000E00/0.000E00:D 0.000E00/0.000E00:E 6.093E-03/-6.704E-09:F -5.595E-03/6.570E-08:10 5.595E-03/-6.570E-08:11 
-9.909E-05/-6.835E-09:12 -2.489E-07/-9.348E-10:13 2.450E-07/9.197E-10:14 3.953E-09/1.505E-11:15 5.805E-03/-3.893E-08:16 
9.366E-05/4.467E-09:17 -5.898E-03/3.379E-08:18 4.466E-15/6.659E-10:19 -5.994E-03/1.367E-08:1A -9.884E-05/-5.900E-09:1B 
6.093E-03/-6.704E-09:1C -2.977E-15/-1.066E-09:1D 5.994E-03/-1.460E-08:1E 9.909E-05/6.835E-09:1F -6.093E-03/6.704E-09:20 
3.144E-15/1.066E-09:21 -5.805E-03/3.801E-08:22 -9.366E-05/-4.482E-09:23 5.898E-03/-3.286E-08:24 -4.360E-15/-6.660E-10:25 
5.595E-03/-6.570E-08:26 9.600E-05/1.919E-08:27 -5.691E-03/3.637E-08:28 1.191E-13/1.014E-08:29 -5.595E-03/6.570E-08:2A 
-9.600E-05/-1.919E-08:2B 5.691E-03/-3.637E-08:2C -1.191E-13/-1.014E-08:2D 
#C 1.4077153669E04 45
1.000E00/0.000E00:1 0.000E00/0.000E00:2 0.000E00/0.000E00:3 0.000E00/0.000E00:4 5.605E-01/-8.142E-08:5 4.386E-01/5.576E-08:6 
8.933E-06/3.433E-08:7 -4.237E-01/1.977E-06:8 4.237E-01/-1.908E-06:9 -1.567E01/1.882E-04:A 1.567E01/-1.882E-04:B 
0.000E00/0.000E00:C 0.000E00/0.000E00:D 0.000E00/0.000E00:E 6.093E-03/-6.859E-09:F -5.595E-03/6.722E-08:10 5.595E-03/-6.722E-08:11 
-9.909E-05/-6.992E-09:12 -2.489E-07/-9.563E-10:13 2.450E-07/9.409E-10:14 3.953E-09/1.540E-11:15 5.805E-03/-3.982E-08:16 
9.366E-05/4.570E-09:17 -5.898E-03/3.457E-08:18 4.674E-15/6.813E-10:19 -5.994E-03/1.399E-08:1A -9.884E-05/-6.036E-09:1B 
6.093E-03/-6.859E-09:1C -3.116E-15/-1.090E-09:1D 5.994E-03/-1.494E-08:1E 9.909E-05/6.992E-09:1F -6.093E-03/6.859E-09:20 
3.290E-15/1.090E-09:21 -5.805E-03/3.888E-08:22 -9.366E-05/-4.585E-09:23 5.898E-03/-3.362E-08:24 -4.564E-15/-6.813E-10:25 
5.595E-03/-6.722E-08:26 9.600E-05/1.963E-08:27 -5.691E-03/3.721E-08:28 1.246E-13/1.037E-08:29 -5.595E-03/6.722E-08:2A 
-9.600E-05/-1.963E-08:2B 5.691E-03/-3.721E-08:2C -1.246E-13/-1.037E-08:2D 
#C 1.4401769030E04 45
1.000E00/0.000E00:1 0.000E00/0.000E00:2 0.000E00/0.000E00:3 0.000E00/0.000E00:4 5.605E-01/-8.330E-08:5 4.386E-01/5.704E-08:6 
8.933E-06/3.512E-08:7 -4.237E-01/2.023E-06:8 4.237E-01/-1.952E-06:9 -1.567E01/1.925E-04:A 1.567E01/-1.925E-04:B 
0.000E00/0.000E00:C 0.000E00/0.000E00:D 0.000E00/0.000E00:E 6.093E-03/-7.017E-09:F -5.595E-03/6.877E-08:10 5.595E-03/-6.877E-08:11 
-9.909E-05/-7.153E-09:12 -2.489E-07/-9.784E-10:13 2.450E-07/9.626E-10:14 3.953E-09/1.576E-11:15 5.805E-03/-4.074E-08:16 
9.366E-05/4.675E-09:17 -5.898E-03/3.537E-08:18 4.892E-15/6.970E-10:19 -5.994E-03/1.431E-08:1A -9.884E-05/-6.175E-09:1B 
6.093E-03/-7.017E-09:1C -3.261E-15/-1.116E-09:1D 5.994E-03/-1.529E-08:1E 9.909E-05/7.153E-09:1F -6.093E-03/7.017E-09:20 
3.444E-15/1.115E-09:21 -5.805E-03/3.978E-08:22 -9.366E-05/-4.691E-09:23 5.898E-03/-3.439E-08:24 -4.777E-15/-6.970E-10:25 
5.595E-03/-6.877E-08:26 9.600E-05/2.008E-08:27 -5.691E-03/3.807E-08:28 1.304E-13/1.061E-08:29 -5.595E-03/6.877E-08:2A 
-9.600E-05/-2.008E-08:2B 5.691E-03/-3.807E-08:2C -1.304E-13/-1.061E-08:2D 
#C 1.4733869933E04 45
1.000E00/0.000E00:1 0.000E00/0.000E00:2 0.000E00/0.000E00:3 0.000E00/0.000E00:4 5.605E-01/-8.522E-08:5 4.386E-01/5.836E-08:6 
8.933E-06/3.593E-08:7 -4.237E-01/2.069E-06:8 4.237E-01/-1.997E-06:9 -1.567E01/1.970E-04:A 1.567E01/-1.970E-04:B 
0.000E00/0.000E00:C 0.000E00/0.000E00:D 0.000E00/0.000E00:E 6.093E-03/-7.179E-09:F -5.595E-03/7.035E-08:10 5.595E-03/-7.035E-08:11 
