
**** 08/26/125 14:52:45 ****** NT PSpice 8.0 (July 1997) ****** ID# 74155 ****

 *BIQU.FILTER: DEVICEMODELL*


 ****     CIRCUIT DESCRIPTION


******************************************************************************



.WIDTH OUT=80
.SUBCKT UA741 2 3 6
* 2=-E , 3=+E , 6=A *
VEE 4 0 DC -15
VCC 7 0 DC 15
R1 1 4 1K
R2 15 4 50K
R3 5 4 1K
R4 17 4 5K
R5 18 16 39K
R6 22 23 4.5K
R7 20 23 7.5K
R8 21 4 50K
R9 19 4 50
R10 24 6 25
R11 6 25 50
C 22 14 30P
Q1 9 3 10 NPN
Q2 12 13 10 PNP
Q3 9 2 11 NPN
Q4 14 13 11 PNP
Q5 12 15 1 NPN
Q6 14 15 5 NPN
Q7 7 12 15 NPN
Q8 9 9 7 PNP
Q9 13 9 7 PNP
Q10 13 16 17 NPN
Q11 16 16 4 NPN
Q12 18 18 7 PNP
Q13 14 19 4 NPN
Q14 20 14 21 NPN
Q15 22 18 7 PNP
Q16 22 23 20 NPN
Q17 20 21 19 NPN
Q18 22 24 6 NPN
Q19 7 22 24 NPQ
Q20 4 20 25 PNQ
Q21 6 6 23 NPN
.MODEL NPN NPN BF=160 RB=100 CJS=2P
+TF=0.3N TR=6N CJE=3P CJC=2P VAF=100
.MODEL NPQ NPN BF=160 RB=100 CJS=2P
+TF=0.3N TR=6N CJE=3P CJC=2P VAF=100 IS=2P
.MODEL PNP PNP BF=20 RB=20 TF=1N TR=20N
+CJE=6P CJC=4P VAF=100
.MODEL PNQ PNP BF=20 RB=20 TF=1N TR=20N
+CJE=6P CJC=4P VAF=100 IS=2P
.ENDS
XOP1 2 0 3 UA741
XOP2 4 0 5 UA741
XOP3 6 0 7 UA741
R1 1 2 10K
R2 2 3 100K
R3 3 4 10K
R4 4 5 10K
R5 5 6 10K
R6 2 7 10K
C1 2 3 0.016U
C2 6 7 0.016U
VE 1 0 AC 1
.OP
.AC DEC 101 1 10MEG
.probe/CSDF
.END

**** 08/26/125 14:52:45 ****** NT PSpice 8.0 (July 1997) ****** ID# 74155 ****

 *BIQU.FILTER: DEVICEMODELL*


 ****     BJT MODEL PARAMETERS


******************************************************************************




               XOP1.NPN        XOP1.NPQ        XOP1.PNP        XOP1.PNQ        
               NPN             NPN             PNP             PNP             
          IS  100.000000E-18    2.000000E-12  100.000000E-18    2.000000E-12 
          BF  160             160              20              20            
          NF    1               1               1               1            
         VAF  100             100             100             100            
          BR    1               1               1               1            
          NR    1               1               1               1            
          RB  100             100              20              20            
         CJE    3.000000E-12    3.000000E-12    6.000000E-12    6.000000E-12 
         CJC    2.000000E-12    2.000000E-12    4.000000E-12    4.000000E-12 
         CJS    2.000000E-12    2.000000E-12                                 
          TF  300.000000E-12  300.000000E-12    1.000000E-09    1.000000E-09 
          TR    6.000000E-09    6.000000E-09   20.000000E-09   20.000000E-09 


               XOP2.NPN        XOP2.NPQ        XOP2.PNP        XOP2.PNQ        
               NPN             NPN             PNP             PNP             
          IS  100.000000E-18    2.000000E-12  100.000000E-18    2.000000E-12 
          BF  160             160              20              20            
          NF    1               1               1               1            
         VAF  100             100             100             100            
          BR    1               1               1               1            
          NR    1               1               1               1            
          RB  100             100              20              20            
         CJE    3.000000E-12    3.000000E-12    6.000000E-12    6.000000E-12 
         CJC    2.000000E-12    2.000000E-12    4.000000E-12    4.000000E-12 
         CJS    2.000000E-12    2.000000E-12                                 
          TF  300.000000E-12  300.000000E-12    1.000000E-09    1.000000E-09 
          TR    6.000000E-09    6.000000E-09   20.000000E-09   20.000000E-09 


               XOP3.NPN        XOP3.NPQ        XOP3.PNP        XOP3.PNQ        
               NPN             NPN             PNP             PNP             
          IS  100.000000E-18    2.000000E-12  100.000000E-18    2.000000E-12 
          BF  160             160              20              20            
          NF    1               1               1               1            
         VAF  100             100             100             100            
          BR    1               1               1               1            
          NR    1               1               1               1            
          RB  100             100              20              20            
         CJE    3.000000E-12    3.000000E-12    6.000000E-12    6.000000E-12 
         CJC    2.000000E-12    2.000000E-12    4.000000E-12    4.000000E-12 
         CJS    2.000000E-12    2.000000E-12                                 
          TF  300.000000E-12  300.000000E-12    1.000000E-09    1.000000E-09 
          TR    6.000000E-09    6.000000E-09   20.000000E-09   20.000000E-09 


**** 08/26/125 14:52:45 ****** NT PSpice 8.0 (July 1997) ****** ID# 74155 ****

 *BIQU.FILTER: DEVICEMODELL*


 ****     SMALL SIGNAL BIAS SOLUTION       TEMPERATURE =   27.000 DEG C


******************************************************************************



 NODE   VOLTAGE     NODE   VOLTAGE     NODE   VOLTAGE     NODE   VOLTAGE


(    1)    0.0000  (    2) 401.7E-06  (    3) 401.7E-06  (    4) 401.7E-06      

(    5) 886.8E-06  (    6) 401.7E-06  (    7)     .0013  (XOP1.1)  -14.9920     

(XOP1.4)  -15.0000 (XOP1.5)  -14.9920 (XOP1.7)   15.0000 (XOP1.9)   14.3330     

(XOP2.1)  -14.9920 (XOP2.4)  -15.0000 (XOP2.5)  -14.9920 (XOP2.7)   15.0000     

(XOP2.9)   14.3330 (XOP3.1)  -14.9920 (XOP3.4)  -15.0000 (XOP3.5)  -14.9920     

(XOP3.7)   15.0000 (XOP3.9)   14.3330 (XOP1.10)    -.6484                       

(XOP1.11)    -.6482                   (XOP1.12)  -13.6850                       

(XOP1.13)   -1.2962                   (XOP1.14)  -13.5220                       

(XOP1.15)  -14.3410                   (XOP1.16)  -14.2340                       

(XOP1.17)  -14.9030                   (XOP1.18)   14.2360                       

(XOP1.19)  -14.9590                   (XOP1.20)    -.6463                       

(XOP1.21)  -14.1930                   (XOP1.22)     .5920                       

(XOP1.23)     .1165                   (XOP1.24)     .0558                       

(XOP1.25)    -.1104                   (XOP2.10)    -.6484                       

(XOP2.11)    -.6482                   (XOP2.12)  -13.6850                       

(XOP2.13)   -1.2962                   (XOP2.14)  -13.5220                       

(XOP2.15)  -14.3410                   (XOP2.16)  -14.2340                       

(XOP2.17)  -14.9030                   (XOP2.18)   14.2360                       

(XOP2.19)  -14.9590                   (XOP2.20)    -.6458                       

(XOP2.21)  -14.1930                   (XOP2.22)     .5925                       

(XOP2.23)     .1170                   (XOP2.24)     .0563                       

(XOP2.25)    -.1099                   (XOP3.10)    -.6484                       

(XOP3.11)    -.6482                   (XOP3.12)  -13.6850                       

(XOP3.13)   -1.2962                   (XOP3.14)  -13.5220                       

(XOP3.15)  -14.3410                   (XOP3.16)  -14.2340                       

(XOP3.17)  -14.9030                   (XOP3.18)   14.2360                       

(XOP3.19)  -14.9590                   (XOP3.20)    -.6454                       

(XOP3.21)  -14.1930                   (XOP3.22)     .5929                       

(XOP3.23)     .1174                   (XOP3.24)     .0567                       

(XOP3.25)    -.1095                   




    VOLTAGE SOURCE CURRENTS
    NAME         CURRENT

    VE           4.017E-08
    XOP1.VEE     3.737E-03
    XOP1.VCC    -3.737E-03
    XOP2.VEE     3.737E-03
    XOP2.VCC    -3.737E-03
    XOP3.VEE     3.737E-03
    XOP3.VCC    -3.737E-03

    TOTAL POWER DISSIPATION   3.36E-01  WATTS


**** 08/26/125 14:52:45 ****** NT PSpice 8.0 (July 1997) ****** ID# 74155 ****

 *BIQU.FILTER: DEVICEMODELL*


 ****     OPERATING POINT INFORMATION      TEMPERATURE =   27.000 DEG C


******************************************************************************






**** BIPOLAR JUNCTION TRANSISTORS


NAME         XOP1.Q1     XOP1.Q2     XOP1.Q3     XOP1.Q4     XOP1.Q5   
MODEL        XOP1.NPN    XOP1.PNP    XOP1.NPN    XOP1.PNP    XOP1.NPN  
IB           4.82E-08   -3.77E-07    4.85E-08   -3.81E-07    5.23E-08 
IC           8.81E-06   -8.49E-06    8.88E-06   -8.55E-06    8.42E-06 
VBE          6.48E-01   -6.48E-01    6.49E-01   -6.48E-01    6.50E-01 
VBC         -1.43E+01    1.24E+01   -1.43E+01    1.22E+01   -6.56E-01 
VCE          1.50E+01   -1.30E+01    1.50E+01   -1.29E+01    1.31E+00 
BETADC       1.83E+02    2.25E+01    1.83E+02    2.24E+01    1.61E+02 
GM           3.41E-04    3.28E-04    3.43E-04    3.30E-04    3.26E-04 
RPI          5.37E+05    6.85E+04    5.33E+05    6.79E+04    4.95E+05 
RX           1.00E+02    2.00E+01    1.00E+02    2.00E+01    1.00E+02 
RO           1.30E+07    1.32E+07    1.29E+07    1.31E+07    1.20E+07 
CBE          4.78E-12    9.68E-12    4.78E-12    9.68E-12    4.78E-12 
CBC          7.43E-13    1.55E-12    7.43E-13    1.56E-12    1.63E-12 
CJS          2.00E-12    0.00E+00    2.00E-12    0.00E+00    2.00E-12 
BETAAC       1.83E+02    2.25E+01    1.83E+02    2.24E+01    1.61E+02 
CBX          0.00E+00    0.00E+00    0.00E+00    0.00E+00    0.00E+00 
FT           9.82E+06    4.65E+06    9.89E+06    4.67E+06    8.08E+06 



NAME         XOP1.Q6     XOP1.Q7     XOP1.Q8     XOP1.Q9     XOP1.Q10  
MODEL        XOP1.NPN    XOP1.NPN    XOP1.PNP    XOP1.PNP    XOP1.NPN  
IB           5.23E-08    6.42E-08   -8.04E-07   -8.04E-07    1.07E-07 
IC           8.43E-06    1.32E-05   -1.61E-05   -1.86E-05    1.94E-05 
VBE          6.50E-01    6.56E-01   -6.67E-01   -6.67E-01    6.69E-01 
VBC         -8.19E-01   -2.87E+01    0.00E+00    1.56E+01   -1.29E+01 
VCE          1.47E+00    2.93E+01   -6.67E-01   -1.63E+01    1.36E+01 
BETADC       1.61E+02    2.06E+02    2.00E+01    2.31E+01    1.81E+02 
GM           3.26E-04    5.11E-04    6.22E-04    7.19E-04    7.48E-04 
RPI          4.95E+05    4.03E+05    3.22E+04    3.22E+04    2.41E+05 
RX           1.00E+02    1.00E+02    2.00E+01    2.00E+01    1.00E+02 
RO           1.20E+07    9.73E+06    6.22E+06    6.22E+06    5.83E+06 
CBE          4.78E-12    4.86E-12    1.01E-11    1.02E-11    4.97E-12 
CBC          1.57E-12    5.96E-13    4.00E-12    1.45E-12    7.67E-13 
CJS          2.00E-12    2.00E-12    0.00E+00    0.00E+00    2.00E-12 
BETAAC       1.61E+02    2.06E+02    2.00E+01    2.31E+01    1.81E+02 
CBX          0.00E+00    0.00E+00    0.00E+00    0.00E+00    0.00E+00 
FT           8.17E+06    1.49E+07    7.02E+06    9.82E+06    2.08E+07 



NAME         XOP1.Q11    XOP1.Q12    XOP1.Q13    XOP1.Q14    XOP1.Q15  
MODEL        XOP1.NPN    XOP1.PNP    XOP1.NPN    XOP1.NPN    XOP1.PNP  
IB           4.53E-06   -3.32E-05   -1.44E-12    1.14E-07   -3.32E-05 
IC           7.25E-04   -6.64E-04    2.94E-12    2.05E-05   -7.54E-04 
VBE          7.66E-01   -7.64E-01    4.09E-02    6.71E-01   -7.64E-01 
VBC          0.00E+00    0.00E+00   -1.44E+00   -1.29E+01    1.36E+01 
VCE          7.66E-01   -7.64E-01    1.48E+00    1.35E+01   -1.44E+01 
BETADC       1.60E+02    2.00E+01   -2.04E+00    1.81E+02    2.27E+01 
GM           2.80E-02    2.57E-02    4.32E-15    7.93E-04    2.92E-02 
RPI          5.71E+03    7.79E+02    1.57E+14    2.28E+05    7.79E+02 
RX           1.00E+02    2.00E+01    1.00E+02    1.00E+02    2.00E+01 
RO           1.38E+05    1.51E+05    9.72E+11    5.50E+06    1.51E+05 
CBE          1.35E-11    3.58E-11    3.06E-12    4.99E-12    3.93E-11 
CBC          2.00E-12    4.00E-12    1.41E-12    7.68E-13    1.51E-12 
CJS          2.00E-12    0.00E+00    2.00E-12    2.00E-12    0.00E+00 
BETAAC       1.60E+02    2.00E+01    6.78E-01    1.81E+02    2.27E+01 
CBX          0.00E+00    0.00E+00    0.00E+00    0.00E+00    0.00E+00 
FT           2.88E+08    1.03E+08    1.54E-04    2.19E+07    1.14E+08 



NAME         XOP1.Q16    XOP1.Q17    XOP1.Q18    XOP1.Q19    XOP1.Q20  
MODEL        XOP1.NPN    XOP1.NPN    XOP1.NPN    XOP1.NPQ    XOP1.PNQ  
IB           3.96E-06    4.48E-06   -5.36E-13    1.20E-05   -9.28E-05 
IC           6.36E-04    8.14E-04    1.13E-12    2.20E-03   -2.12E-03 
VBE          7.63E-01    7.66E-01    5.54E-02    5.36E-01   -5.36E-01 
VBC         -4.75E-01   -1.35E+01   -5.36E-01   -1.44E+01    1.44E+01 
VCE          1.24E+00    1.43E+01    5.92E-01    1.49E+01   -1.49E+01 
BETADC       1.61E+02    1.82E+02   -2.11E+00    1.83E+02    2.29E+01 
GM           2.46E-02    3.15E-02    2.72E-14    8.52E-02    8.20E-02 
RPI          6.53E+03    5.77E+03    1.55E+14    2.15E+03    2.79E+02 
RX           1.00E+02    1.00E+02    1.00E+02    1.00E+02    2.00E+01 
RO           1.58E+05    1.39E+05    9.89E+11    5.19E+04    5.39E+04 
CBE          1.24E-11    1.45E-11    3.08E-12    2.99E-11    9.07E-11 
CBC          1.70E-12    7.56E-13    1.67E-12    7.42E-13    1.49E-12 
CJS          2.00E-12    2.00E-12    2.00E-12    2.00E-12    0.00E+00 
BETAAC       1.61E+02    1.82E+02    4.21E+00    1.83E+02    2.29E+01 
CBX          0.00E+00    0.00E+00    0.00E+00    0.00E+00    0.00E+00 
FT           2.77E+08    3.28E+08    9.10E-04    4.43E+08    1.42E+08 



NAME         XOP1.Q21    XOP2.Q1     XOP2.Q2     XOP2.Q3     XOP2.Q4   
MODEL        XOP1.NPN    XOP2.NPN    XOP2.PNP    XOP2.NPN    XOP2.PNP  
IB          -7.26E-16    4.82E-08   -3.77E-07    4.85E-08   -3.81E-07 
IC          -1.16E-13    8.81E-06   -8.49E-06    8.88E-06   -8.55E-06 
VBE         -1.16E-01    6.48E-01   -6.48E-01    6.49E-01   -6.48E-01 
VBC          0.00E+00   -1.43E+01    1.24E+01   -1.43E+01    1.22E+01 
VCE         -1.16E-01    1.50E+01   -1.30E+01    1.50E+01   -1.29E+01 
BETADC       1.60E+02    1.83E+02    2.25E+01    1.83E+02    2.24E+01 
GM          -2.66E-15    3.41E-04    3.28E-04    3.43E-04    3.30E-04 
RPI          1.60E+14    5.37E+05    6.85E+04    5.33E+05    6.79E+04 
RX           1.00E+02    1.00E+02    2.00E+01    1.00E+02    2.00E+01 
RO           9.97E+11    1.30E+07    1.32E+07    1.29E+07    1.31E+07 
CBE          2.86E-12    4.78E-12    9.68E-12    4.78E-12    9.68E-12 
CBC          2.00E-12    7.43E-13    1.55E-12    7.43E-13    1.56E-12 
CJS          2.00E-12    2.00E-12    0.00E+00    2.00E-12    0.00E+00 
BETAAC      -4.26E-01    1.83E+02    2.25E+01    1.83E+02    2.24E+01 
CBX          0.00E+00    0.00E+00    0.00E+00    0.00E+00    0.00E+00 
FT          -8.71E-05    9.82E+06    4.65E+06    9.89E+06    4.67E+06 



NAME         XOP2.Q5     XOP2.Q6     XOP2.Q7     XOP2.Q8     XOP2.Q9   
MODEL        XOP2.NPN    XOP2.NPN    XOP2.NPN    XOP2.PNP    XOP2.PNP  
IB           5.23E-08    5.23E-08    6.42E-08   -8.04E-07   -8.04E-07 
IC           8.42E-06    8.43E-06    1.32E-05   -1.61E-05   -1.86E-05 
VBE          6.50E-01    6.50E-01    6.56E-01   -6.67E-01   -6.67E-01 
VBC         -6.56E-01   -8.19E-01   -2.87E+01    0.00E+00    1.56E+01 
VCE          1.31E+00    1.47E+00    2.93E+01   -6.67E-01   -1.63E+01 
BETADC       1.61E+02    1.61E+02    2.06E+02    2.00E+01    2.31E+01 
GM           3.26E-04    3.26E-04    5.11E-04    6.22E-04    7.19E-04 
RPI          4.95E+05    4.95E+05    4.03E+05    3.22E+04    3.22E+04 
RX           1.00E+02    1.00E+02    1.00E+02    2.00E+01    2.00E+01 
RO           1.20E+07    1.20E+07    9.73E+06    6.22E+06    6.22E+06 
CBE          4.78E-12    4.78E-12    4.86E-12    1.01E-11    1.02E-11 
CBC          1.63E-12    1.57E-12    5.96E-13    4.00E-12    1.45E-12 
CJS          2.00E-12    2.00E-12    2.00E-12    0.00E+00    0.00E+00 
BETAAC       1.61E+02    1.61E+02    2.06E+02    2.00E+01    2.31E+01 
CBX          0.00E+00    0.00E+00    0.00E+00    0.00E+00    0.00E+00 
FT           8.08E+06    8.17E+06    1.49E+07    7.02E+06    9.82E+06 



NAME         XOP2.Q10    XOP2.Q11    XOP2.Q12    XOP2.Q13    XOP2.Q14  
MODEL        XOP2.NPN    XOP2.NPN    XOP2.PNP    XOP2.NPN    XOP2.NPN  
IB           1.07E-07    4.53E-06   -3.32E-05   -1.44E-12    1.14E-07 
IC           1.94E-05    7.25E-04   -6.64E-04    2.94E-12    2.05E-05 
VBE          6.69E-01    7.66E-01   -7.64E-01    4.09E-02    6.71E-01 
VBC         -1.29E+01    0.00E+00    0.00E+00   -1.44E+00   -1.29E+01 
VCE          1.36E+01    7.66E-01   -7.64E-01    1.48E+00    1.35E+01 
BETADC       1.81E+02    1.60E+02    2.00E+01   -2.04E+00    1.81E+02 
GM           7.48E-04    2.80E-02    2.57E-02    4.32E-15    7.93E-04 
RPI          2.41E+05    5.71E+03    7.79E+02    1.57E+14    2.28E+05 
RX           1.00E+02    1.00E+02    2.00E+01    1.00E+02    1.00E+02 
RO           5.83E+06    1.38E+05    1.51E+05    9.72E+11    5.50E+06 
CBE          4.97E-12    1.35E-11    3.58E-11    3.06E-12    4.99E-12 
CBC          7.67E-13    2.00E-12    4.00E-12    1.41E-12    7.68E-13 
CJS          2.00E-12    2.00E-12    0.00E+00    2.00E-12    2.00E-12 
BETAAC       1.81E+02    1.60E+02    2.00E+01    6.78E-01    1.81E+02 
CBX          0.00E+00    0.00E+00    0.00E+00    0.00E+00    0.00E+00 
FT           2.08E+07    2.88E+08    1.03E+08    1.54E-04    2.19E+07 



NAME         XOP2.Q15    XOP2.Q16    XOP2.Q17    XOP2.Q18    XOP2.Q19  
MODEL        XOP2.PNP    XOP2.NPN    XOP2.NPN    XOP2.NPN    XOP2.NPQ  
IB          -3.32E-05    3.96E-06    4.48E-06   -5.36E-13    1.20E-05 
IC          -7.54E-04    6.36E-04    8.14E-04    1.13E-12    2.20E-03 
VBE         -7.64E-01    7.63E-01    7.66E-01    5.54E-02    5.36E-01 
VBC          1.36E+01   -4.75E-01   -1.35E+01   -5.36E-01   -1.44E+01 
VCE         -1.44E+01    1.24E+00    1.43E+01    5.92E-01    1.49E+01 
BETADC       2.27E+01    1.61E+02    1.82E+02   -2.11E+00    1.83E+02 
GM           2.92E-02    2.46E-02    3.15E-02    2.72E-14    8.52E-02 
RPI          7.79E+02    6.53E+03    5.77E+03    1.55E+14    2.15E+03 
RX           2.00E+01    1.00E+02    1.00E+02    1.00E+02    1.00E+02 
RO           1.51E+05    1.58E+05    1.39E+05    9.89E+11    5.19E+04 
CBE          3.93E-11    1.24E-11    1.45E-11    3.08E-12    2.99E-11 
CBC          1.51E-12    1.70E-12    7.56E-13    1.67E-12    7.42E-13 
CJS          0.00E+00    2.00E-12    2.00E-12    2.00E-12    2.00E-12 
BETAAC       2.27E+01    1.61E+02    1.82E+02    4.21E+00    1.83E+02 
CBX          0.00E+00    0.00E+00    0.00E+00    0.00E+00    0.00E+00 
FT           1.14E+08    2.77E+08    3.28E+08    9.10E-04    4.43E+08 



NAME         XOP2.Q20    XOP2.Q21    XOP3.Q1     XOP3.Q2     XOP3.Q3   
MODEL        XOP2.PNQ    XOP2.NPN    XOP3.NPN    XOP3.PNP    XOP3.NPN  
IB          -9.28E-05   -7.26E-16    4.82E-08   -3.77E-07    4.85E-08 
IC          -2.12E-03   -1.16E-13    8.81E-06   -8.49E-06    8.88E-06 
VBE         -5.36E-01   -1.16E-01    6.48E-01   -6.48E-01    6.49E-01 
VBC          1.44E+01    0.00E+00   -1.43E+01    1.24E+01   -1.43E+01 
VCE         -1.49E+01   -1.16E-01    1.50E+01   -1.30E+01    1.50E+01 
BETADC       2.29E+01    1.60E+02    1.83E+02    2.25E+01    1.83E+02 
GM           8.20E-02   -2.66E-15    3.41E-04    3.28E-04    3.43E-04 
RPI          2.79E+02    1.60E+14    5.37E+05    6.85E+04    5.33E+05 
RX           2.00E+01    1.00E+02    1.00E+02    2.00E+01    1.00E+02 
RO           5.39E+04    9.97E+11    1.30E+07    1.32E+07    1.29E+07 
CBE          9.07E-11    2.86E-12    4.78E-12    9.68E-12    4.78E-12 
CBC          1.49E-12    2.00E-12    7.43E-13    1.55E-12    7.43E-13 
CJS          0.00E+00    2.00E-12    2.00E-12    0.00E+00    2.00E-12 
BETAAC       2.29E+01   -4.26E-01    1.83E+02    2.25E+01    1.83E+02 
CBX          0.00E+00    0.00E+00    0.00E+00    0.00E+00    0.00E+00 
FT           1.42E+08   -8.71E-05    9.82E+06    4.65E+06    9.89E+06 



NAME         XOP3.Q4     XOP3.Q5     XOP3.Q6     XOP3.Q7     XOP3.Q8   
MODEL        XOP3.PNP    XOP3.NPN    XOP3.NPN    XOP3.NPN    XOP3.PNP  
IB          -3.81E-07    5.23E-08    5.23E-08    6.42E-08   -8.04E-07 
IC          -8.55E-06    8.42E-06    8.43E-06    1.32E-05   -1.61E-05 
