
**** 04/29/126 11:38:40 ****** NT PSpice 8.0 (July 1997) ****** ID# 74155 ****

 * D:\Dokumente\docs\ESS\Grundlagen_MNE\PSpice\Verstaerker\CS-Amp\MOS_Amp_Example5_d.sch


 ****     CIRCUIT DESCRIPTION


******************************************************************************




* Schematics Version 8.0 - July 1997
* Sat May 02 12:34:51 2020



** Analysis setup **
.ac DEC 101 10 100MEG
.tran 20ns 5m 0 10u
.OP 
.LIB "D:\MSim_8\lib\User\RASH_PCE3_MODEL.LIB"
.LIB "D:\MSim_8\lib\User\mos.lib"


* From [SCHEMATICS NETLIST] section of msim.ini:
.lib "D:\MSim_8\lib\User\mos.lib"
.lib "D:\MSim_8\lib\EBIPOLAR.LIB"
.lib "D:\MSim_8\lib\User\RASH_PCE3_MODEL.LIB"
.lib "D:\MSim_8\lib\ts.lib"
.lib "D:\msim_8\lib\nom.lib"

.INC "MOS_Amp_Example5_d.net"

**** INCLUDING MOS_Amp_Example5_d.net ****
* Schematics Netlist *



R_R1         3 8 1.4MEG
R_Rs         1 2 250
C_C2         4 6 0.1uF 
R_RD         4 8 15k
M_M1         4 3 5 5 MbreakN1           
V_VDD         8 0 15V
C_Cs         0 9 20uF 
R_R2         0 3 1MEG
V_VIN         1 0  AC 1 sin( 0 1 1000hz )
R_RL         6 0 1Meg
C_C1         2 3 1uF 
R_Rsr1         9 5 3k
R_Rsr2         0 9 12100

**** RESUMING MOS_Amp_Example5_d.cir ****
.INC "MOS_Amp_Example5_d.als"



**** INCLUDING MOS_Amp_Example5_d.als ****
* Schematics Aliases *

.ALIASES
R_R1            R1(1=3 2=8 )
R_Rs            Rs(1=1 2=2 )
C_C2            C2(1=4 2=6 )
R_RD            RD(1=4 2=8 )
M_M1            M1(d=4 g=3 s=5 b=5 )
V_VDD           VDD(+=8 -=0 )
C_Cs            Cs(1=0 2=9 )
R_R2            R2(1=0 2=3 )
V_VIN           VIN(+=1 -=0 )
R_RL            RL(1=6 2=0 )
C_C1            C1(1=2 2=3 )
R_Rsr1          Rsr1(1=9 2=5 )
R_Rsr2          Rsr2(1=0 2=9 )
_    _(8=8)
_    _(3=3)
_    _(2=2)
_    _(1=1)
_    _(6=6)
_    _(4=4)
_    _(5=5)
_    _(9=9)
.ENDALIASES


**** RESUMING MOS_Amp_Example5_d.cir ****
.probe


.END

**** 04/29/126 11:38:40 ****** NT PSpice 8.0 (July 1997) ****** ID# 74155 ****

 * D:\Dokumente\docs\ESS\Grundlagen_MNE\PSpice\Verstaerker\CS-Amp\MOS_Amp_Example5_d.sch


 ****     MOSFET MODEL PARAMETERS


******************************************************************************




               MbreakN1        
               NMOS            
       LEVEL    1            
           L  100.000000E-06 
           W  100.000000E-06 
         VTO    1            
          KP    6.500000E-03 
       GAMMA    0            
         PHI     .6          
          RD    5            
          RS    2            
         RDS    1.000000E+06 
          IS   10.000000E-15 
          JS    0            
          PB     .8          
        PBSW     .8          
         CBD    5.000000E-12 
         CBS    2.000000E-12 
          CJ    0            
        CJSW    0            
        CGSO    1.000000E-12 
        CGDO    1.000000E-12 
        CGBO    1.000000E-12 
         TOX    0            
          XJ    0            
      DIOMOD    1            
         VFB    0            
          U0    0            
        TEMP    0            
         VDD    0            
       XPART    0            


**** 04/29/126 11:38:40 ****** NT PSpice 8.0 (July 1997) ****** ID# 74155 ****

 * D:\Dokumente\docs\ESS\Grundlagen_MNE\PSpice\Verstaerker\CS-Amp\MOS_Amp_Example5_d.sch


 ****     SMALL SIGNAL BIAS SOLUTION       TEMPERATURE =   27.000 DEG C


******************************************************************************



 NODE   VOLTAGE     NODE   VOLTAGE     NODE   VOLTAGE     NODE   VOLTAGE


(    1)    0.0000  (    2)    0.0000  (    3)    6.2500  (    4)   10.0980      

(    5)    4.9348  (    6)    0.0000  (    8)   15.0000  (    9)    3.9543  




    VOLTAGE SOURCE CURRENTS
    NAME         CURRENT

    V_VDD       -3.331E-04
    V_VIN        0.000E+00

    TOTAL POWER DISSIPATION   5.00E-03  WATTS


**** 04/29/126 11:38:40 ****** NT PSpice 8.0 (July 1997) ****** ID# 74155 ****

 * D:\Dokumente\docs\ESS\Grundlagen_MNE\PSpice\Verstaerker\CS-Amp\MOS_Amp_Example5_d.sch


 ****     OPERATING POINT INFORMATION      TEMPERATURE =   27.000 DEG C


******************************************************************************






**** MOSFETS


NAME         M_M1      
MODEL        MbreakN1  
ID           3.27E-04 
VGS          1.32E+00 
VDS          5.16E+00 
VBS          0.00E+00 
VTH          1.00E+00 
VDSAT        3.15E-01 
GM           2.04E-03 
GDS          1.00E-06 
GMB          0.00E+00 
CBD          1.83E-12 
CBS          2.00E-12 
CGSOV        1.00E-16 
CGDOV        1.00E-16 
CGBOV        1.00E-16 
CGS          0.00E+00 
CGD          0.00E+00 
CGB          0.00E+00 
**** 04/29/126 11:38:40 ****** NT PSpice 8.0 (July 1997) ****** ID# 74155 ****

 * D:\Dokumente\docs\ESS\Grundlagen_MNE\PSpice\Verstaerker\CS-Amp\MOS_Amp_Example5_d.sch


 ****     INITIAL TRANSIENT SOLUTION       TEMPERATURE =   27.000 DEG C


******************************************************************************



 NODE   VOLTAGE     NODE   VOLTAGE     NODE   VOLTAGE     NODE   VOLTAGE


(    1)    0.0000  (    2)    0.0000  (    3)    6.2500  (    4)   10.0980      

(    5)    4.9348  (    6)    0.0000  (    8)   15.0000  (    9)    3.9543  




    VOLTAGE SOURCE CURRENTS
    NAME         CURRENT

    V_VDD       -3.331E-04
    V_VIN        0.000E+00

    TOTAL POWER DISSIPATION   5.00E-03  WATTS



          JOB CONCLUDED

          TOTAL JOB TIME             .53
